Time [s],Packet,Type,Identifier,Control,Data,CRC,ACK
0.000118250000000,0,DATA,0x090,0x4,0x66 0xCC 0x66 0xCC,0x5148,ACK
0.000333500000000,1,DATA,0x090,0x8,0x55 0xAA 0x55 0xAA 0x02 0x10 0x78 0x00,0x113D,ACK
0.000450625000000,2,DATA,0x090,0x8,0x00 0x00 0x00 0x00 0x00 0x00 0x00 0x00,0x12C7,ACK
0.000575875000000,3,DATA,0x090,0x8,0x00 0x00 0x00 0x00 0x00 0x00 0x00 0x00,0x12C7,ACK
0.000708125000000,4,DATA,0x090,0x8,0x00 0x00 0x00 0x00 0xC0 0x88 0x17 0x3B,0x0CC3,ACK
0.000829375000000,5,DATA,0x090,0x8,0x3C 0xFD 0x99 0x3C 0xC6 0xE6 0x81 0xBF,0x5CAC,ACK
0.000946625000000,6,DATA,0x090,0x8,0xE6 0x19 0x3A 0xBB 0x93 0xBF 0x42 0x3C,0x015E,ACK
0.001067875000000,7,DATA,0x090,0x8,0xAB 0x39 0xFF 0x3B 0x88 0x56 0x74 0x43,0x28D4,ACK
0.001181125000000,8,DATA,0x090,0x8,0x00 0x00 0x00 0x00 0x00 0x00 0x00 0x00,0x12C7,ACK
0.001306250000000,9,DATA,0x090,0x8,0x00 0x00 0x00 0x00 0x00 0x00 0x00 0x00,0x12C7,ACK
0.001438500000000,10,DATA,0x090,0x8,0x00 0x00 0x00 0x00 0x00 0x00 0x00 0x00,0x12C7,ACK
0.001563750000000,11,DATA,0x090,0x8,0x00 0x00 0x00 0x00 0x00 0x00 0x00 0x00,0x12C7,ACK
0.001689000000000,12,DATA,0x090,0x8,0x00 0x00 0x00 0x00 0x00 0x00 0x00 0x00,0x12C7,ACK
0.001821250000000,13,DATA,0x090,0x8,0x00 0x00 0x00 0x00 0x00 0x00 0x00 0x00,0x12C7,ACK
0.001946500000000,14,DATA,0x090,0x8,0x00 0x00 0x00 0x00 0xDF 0x00 0x14 0x02,0x1035,ACK
0.002070750000000,15,DATA,0x090,0x8,0x77 0x05 0x33 0x00 0x33 0x00 0x25 0x00,0x0FF3,ACK
0.002197875000000,16,DATA,0x090,0x8,0x18 0x00 0x00 0x00 0x00 0x00 0x89 0x00,0x7A6E,ACK
0.002320125000000,17,DATA,0x090,0x8,0x66 0xCC 0x66 0xCC 0x55 0xAA 0x55 0xAA,0x03E5,ACK
0.002434375000000,18,DATA,0x090,0x8,0x01 0x10 0x0E 0x00 0xEB 0xFF 0xFF 0xFF,0x729F,ACK
0.002563625000000,19,DATA,0x090,0x8,0x48 0x00 0x00 0x00 0x23 0x00 0x00 0x00,0x71FF,ACK
0.002685875000000,20,DATA,0x090,0x6,0x32 0x03 0x66 0xCC 0x66 0xCC,0x44EF,ACK
0.003089125000000,21,DATA,0x090,0x8,0x55 0xAA 0x55 0xAA 0x01 0x10 0x0E 0x00,0x677F,ACK
0.003205375000000,22,DATA,0x090,0x8,0xEA 0xFF 0xFF 0xFF 0x49 0x00 0x00 0x00,0x10F9,ACK
0.003327625000000,23,DATA,0x090,0x6,0x20 0x00 0x00 0x00 0x33 0x03,0x7955,ACK
0.003438875000000,24,DATA,0x090,0x4,0x66 0xCC 0x66 0xCC,0x5148,ACK
0.004742375000000,25,DATA,0x090,0x8,0x55 0xAA 0x55 0xAA 0x01 0x10 0x0E 0x00,0x677F,ACK
0.004858625000000,26,DATA,0x090,0x8,0xE8 0xFF 0xFF 0xFF 0x4C 0x00 0x00 0x00,0x1E18,ACK
0.004979875000000,27,DATA,0x090,0x6,0x18 0x00 0x00 0x00 0x34 0x03,0x65E3,ACK
0.005120000000000,28,DATA,0x090,0x4,0x66 0xCC 0x66 0xCC,0x5148,ACK
0.006408625000000,29,DATA,0x090,0x8,0x55 0xAA 0x55 0xAA 0x01 0x10 0x0E 0x00,0x677F,ACK
0.006524875000000,30,DATA,0x090,0x8,0xE6 0xFF 0xFF 0xFF 0x4F 0x00 0x00 0x00,0x6054,ACK
0.006646000000000,31,DATA,0x090,0x6,0x14 0x00 0x00 0x00 0x35 0x03,0x6D8C,ACK
0.006755250000000,32,DATA,0x090,0x4,0x66 0xCC 0x66 0xCC,0x5148,ACK
0.008093750000000,33,DATA,0x090,0x8,0x55 0xAA 0x55 0xAA 0x01 0x10 0x0E 0x00,0x677F,ACK
0.008210000000000,34,DATA,0x090,0x8,0xE5 0xFF 0xFF 0xFF 0x54 0x00 0x00 0x00,0x297E,ACK
0.008333250000000,35,DATA,0x090,0x6,0x0E 0x00 0x00 0x00 0x36 0x03,0x052C,ACK
0.008443500000000,36,DATA,0x090,0x4,0x66 0xCC 0x66 0xCC,0x5148,ACK
0.009632000000000,37,DATA,0x7F8,0x8,0x55 0xAA 0x55 0xAA 0x03 0x10 0x3A 0x00,0x57D0,ACK
0.009749250000000,38,DATA,0x090,0x8,0x55 0xAA 0x55 0xAA 0x01 0x10 0x0E 0x00,0x677F,ACK
0.009865500000000,39,DATA,0x090,0x8,0xE4 0xFF 0xFF 0xFF 0x56 0x00 0x00 0x00,0x43BE,ACK
0.009987625000000,40,DATA,0x090,0x6,0x0C 0x00 0x00 0x00 0x37 0x03,0x7D52,ACK
0.010092000000000,41,DATA,0x7F8,0x8,0x00 0x00 0x00 0x00 0x74 0x86 0x1E 0x05,0x31D0,ACK
0.010213125000000,42,DATA,0x090,0x4,0x66 0xCC 0x66 0xCC,0x5148,ACK
0.010293375000000,43,DATA,0x7F8,0x8,0x15 0x60 0xFE 0x1E 0xB2 0x2C 0x02 0x00,0x2786,ACK
0.010412625000000,44,DATA,0x090,0x8,0x55 0xAA 0x55 0xAA 0x02 0x10 0x78 0x00,0x113D,ACK
0.010529875000000,45,DATA,0x090,0x8,0x00 0x00 0x00 0x00 0x00 0x00 0x00 0x00,0x12C7,ACK
0.010655000000000,46,DATA,0x090,0x8,0x00 0x00 0x00 0x00 0x00 0x00 0x00 0x00,0x12C7,ACK
0.010780375000000,47,DATA,0x7F8,0x8,0x9A 0x37 0x2C 0x00 0x2B 0x44 0x1F 0x00,0x195B,ACK
0.010899500000000,48,DATA,0x090,0x8,0x00 0x00 0x00 0x00 0x70 0xDD 0xE8 0x3A,0x1D93,ACK
0.011019750000000,49,DATA,0x090,0x8,0xB2 0x4A 0x9C 0x3C 0x06 0xF1 0x81 0xBF,0x0CC0,ACK
0.011136000000000,50,DATA,0x090,0x8,0xC9 0x9C 0x8B 0xBB 0x0B 0x5E 0x44 0x3C,0x6753,ACK
0.011248250000000,51,DATA,0x118,0x8,0x55 0xAA 0x55 0xAA 0x04 0x10 0x06 0x00,0x7106,ACK
0.011365375000000,52,DATA,0x090,0x8,0x97 0xE9 0xCE 0x3B 0x88 0x56 0x74 0x43,0x5B80,ACK
0.011479625000000,53,DATA,0x090,0x8,0x00 0x00 0x00 0x00 0x00 0x00 0x00 0x00,0x12C7,ACK
0.011604875000000,54,DATA,0x090,0x8,0x00 0x00 0x00 0x00 0x00 0x00 0x00 0x00,0x12C7,ACK
0.011730125000000,55,DATA,0x118,0x8,0x17 0x00 0x80 0x00 0x0E 0x01 0x66 0xCC,0x3CCD,ACK
0.011848375000000,56,DATA,0x090,0x8,0x00 0x00 0x00 0x00 0x00 0x00 0x00 0x00,0x12C7,ACK
0.011973625000000,57,DATA,0x090,0x8,0x00 0x00 0x00 0x00 0x00 0x00 0x00 0x00,0x12C7,ACK
0.012098875000000,58,DATA,0x090,0x8,0x00 0x00 0x00 0x00 0x00 0x00 0x00 0x00,0x12C7,ACK
0.012224125000000,59,DATA,0x118,0x2,0x66 0xCC,0x41CF,ACK
0.012289250000000,60,DATA,0x090,0x8,0x00 0x00 0x00 0x00 0x00 0x00 0x00 0x00,0x12C7,ACK
0.012414500000000,61,DATA,0x090,0x8,0x00 0x00 0x00 0x00 0xDF 0x00 0x14 0x02,0x1035,ACK
0.012538750000000,62,DATA,0x090,0x8,0x77 0x05 0x33 0x00 0x33 0x00 0x25 0x00,0x0FF3,ACK
0.012659000000000,63,DATA,0x7F8,0x8,0x00 0x00 0x00 0x00 0x00 0x00 0x00 0x00,0x1B02,ACK
0.012786250000000,64,DATA,0x090,0x8,0x18 0x00 0x00 0x00 0x00 0x00 0x8A 0x00,0x739D,ACK
0.012908375000000,65,DATA,0x090,0x8,0x66 0xCC 0x66 0xCC 0x55 0xAA 0x55 0xAA,0x03E5,ACK
0.013022625000000,66,DATA,0x090,0x8,0x01 0x10 0x0E 0x00 0xE2 0xFF 0xFF 0xFF,0x5E3E,ACK
0.013144875000000,67,DATA,0x7F8,0x8,0x00 0x00 0x00 0x00 0x00 0x00 0x00 0x00,0x1B02,ACK
0.013272125000000,68,DATA,0x090,0x8,0x57 0x00 0x00 0x00 0x0A 0x00 0x00 0x00,0x127B,ACK
0.013394375000000,69,DATA,0x090,0x6,0x38 0x03 0x66 0xCC 0x66 0xCC,0x4C4E,ACK
0.013491625000000,70,DATA,0x090,0x8,0x55 0xAA 0x55 0xAA 0x01 0x10 0x0E 0x00,0x677F,ACK
0.013607875000000,71,DATA,0x7F8,0x8,0x0F 0x27 0x0F 0x27 0x0F 0x27 0x0F 0x27,0x312E,ACK
0.013722000000000,72,DATA,0x090,0x8,0xDF 0xFF 0xFF 0xFF 0x58 0x00 0x00 0x00,0x3085,ACK
0.013844250000000,73,DATA,0x090,0x8,0x08 0x00 0x00 0x00 0x39 0x03 0x66 0xCC,0x3969,ACK
0.013963500000000,74,DATA,0x090,0x2,0x66 0xCC,0x1021,ACK
0.014028750000000,75,DATA,0x7F8,0x8,0x00 0x00 0x00 0x00 0x5C 0x00 0x00 0x00,0x2FF3,ACK
0.014154875000000,76,DATA,0x108,0x8,0x55 0xAA 0x55 0xAA 0x09 0x10 0xB8 0x00,0x5AD4,ACK
0.014270125000000,77,DATA,0x108,0x8,0x44 0x4A 0x49 0x01 0x18 0x42 0x18 0x42,0x2D17,ACK
0.014383375000000,78,DATA,0x108,0x8,0x18 0x42 0x18 0x42 0x00 0x00 0x00 0x00,0x6D74,ACK
0.014502625000000,79,DATA,0x7F8,0x8,0x00 0x00 0x66 0xCC 0x66 0xCC 0x55 0xAA,0x604A,ACK
0.014620875000000,80,DATA,0x108,0x8,0x00 0x00 0x64 0x00 0x00 0x00 0x00 0x00,0x2E47,ACK
0.014745125000000,81,DATA,0x108,0x8,0x17 0xFC 0xE9 0x03 0xE9 0x03 0x00 0x00,0x73CC,ACK
0.014865375000000,82,DATA,0x108,0x8,0xEB 0x01 0xE9 0x03 0x17 0xFC 0x17 0xFC,0x2B37,ACK
0.014982625000000,83,DATA,0x7F8,0x8,0x55 0xAA 0x03 0x10 0x3A 0x00 0x61 0xC6,0x731B,ACK
0.015099750000000,84,DATA,0x090,0x8,0x55 0xAA 0x55 0xAA 0x01 0x10 0x0E 0x00,0x677F,ACK
0.015216000000000,85,DATA,0x090,0x8,0xDF 0xFF 0xFF 0xFF 0x59 0x00 0x00 0x00,0x2E7D,ACK
0.015339250000000,86,DATA,0x090,0x8,0x07 0x00 0x00 0x00 0x3A 0x03 0x66 0xCC,0x1015,ACK
0.015459500000000,87,DATA,0x7F8,0x8,0x62 0x20 0x74 0x86 0x1E 0x05 0x15 0x60,0x51DB,ACK
0.015575750000000,88,DATA,0x090,0x2,0x66 0xCC,0x1021,ACK
0.015640875000000,89,DATA,0x108,0x8,0xE9 0x03 0xE9 0x03 0x00 0x00 0x00 0x00,0x4FEE,ACK
0.015763125000000,90,DATA,0x108,0x8,0xF0 0x04 0x00 0x00 0x00 0x00 0x27 0x02,0x29FA,ACK
0.015885375000000,91,DATA,0x7F8,0x8,0xFE 0x1E 0xB2 0x2C 0x02 0x00 0x0E 0x38,0x29DF,ACK
0.016003625000000,92,DATA,0x108,0x8,0x00 0x00 0x00 0x00 0x00 0x00 0xF3 0x8F,0x1ECC,ACK
0.016125875000000,93,DATA,0x108,0x8,0x00 0x00 0x00 0x00 0x00 0x00 0x00 0x00,0x6C70,ACK
0.016251125000000,94,DATA,0x108,0x8,0x00 0x00 0x00 0x00 0x00 0x00 0x00 0x00,0x6C70,ACK
0.016376250000000,95,DATA,0x7F8,0x8,0x2C 0x00 0x7D 0x44 0x1F 0x00 0x00 0x00,0x6774,ACK
0.016499500000000,96,DATA,0x108,0x8,0x00 0x00 0x00 0x00 0x44 0x00 0x00 0x00,0x0E6A,ACK
0.016623750000000,97,DATA,0x108,0x8,0x00 0x00 0x00 0x00 0x00 0x00 0x00 0x80,0x4E63,ACK
0.016748000000000,98,DATA,0x108,0x8,0x59 0x4E 0x0D 0xC4 0x24 0x00 0x00 0x00,0x0962,ACK
0.016866250000000,99,DATA,0x7F8,0x8,0x00 0x00 0x00 0x00 0x00 0x00 0x00 0x00,0x1B02,ACK
0.016993500000000,100,DATA,0x090,0x8,0x55 0xAA 0x55 0xAA 0x01 0x10 0x0E 0x00,0x677F,ACK
0.017109625000000,101,DATA,0x090,0x8,0xE2 0xFF 0xFF 0xFF 0x5E 0x00 0x00 0x00,0x0875,ACK
0.017230875000000,102,DATA,0x090,0x8,0x07 0x00 0x00 0x00 0x3B 0x03 0x66 0xCC,0x0EED,ACK
0.017351125000000,103,DATA,0x7F8,0x8,0x00 0x00 0x00 0x00 0x00 0x00 0x0F 0x27,0x3DEE,ACK
0.017476375000000,104,DATA,0x090,0x2,0x66 0xCC,0x1021,ACK
0.017541625000000,105,DATA,0x108,0x8,0x00 0x00 0x00 0x00 0x00 0x00 0x00 0x00,0x6C70,ACK
0.017666875000000,106,DATA,0x108,0x8,0x00 0x00 0x48 0xC3 0x00 0x00 0x00 0x00,0x114F,ACK
0.017789000000000,107,DATA,0x7F8,0x8,0x0F 0x27 0x0F 0x27 0x0F 0x27 0x00 0x00,0x17C2,ACK
0.017908250000000,108,DATA,0x108,0x8,0x00 0x00 0x00 0x00 0x00 0x00 0x00 0x00,0x6C70,ACK
0.018033500000000,109,DATA,0x108,0x8,0x00 0x00 0x00 0x00 0x00 0x00 0x00 0x00,0x6C70,ACK
0.018158750000000,110,DATA,0x108,0x8,0xAF 0x30 0x88 0x56 0x74 0x43 0xB0 0x57,0x3BA8,ACK
0.018272000000000,111,DATA,0x7F8,0x8,0x00 0x00 0x5C 0x00 0x00 0x00 0x01 0x00,0x5665,ACK
0.018396250000000,112,DATA,0x090,0x8,0x55 0xAA 0x55 0xAA 0x01 0x10 0x0E 0x00,0x677F,ACK
0.018512375000000,113,DATA,0x090,0x8,0xE5 0xFF 0xFF 0xFF 0x62 0x00 0x00 0x00,0x0721,ACK
0.018634625000000,114,DATA,0x090,0x8,0x07 0x00 0x00 0x00 0x3C 0x03 0x66 0xCC,0x5605,ACK
0.018754875000000,115,DATA,0x7F8,0x4,0x66 0xCC 0x66 0xCC,0x5089,ACK
0.018836125000000,116,DATA,0x090,0x2,0x66 0xCC,0x1021,ACK
0.018901375000000,117,DATA,0x108,0x8,0x75 0x43 0x00 0x00 0x00 0x00 0x00 0x00,0x149B,ACK
0.019023625000000,118,DATA,0x108,0x8,0x00 0x00 0x00 0x00 0x00 0x00 0x00 0x00,0x6C70,ACK
0.019157750000000,119,DATA,0x108,0x8,0x00 0x00 0x00 0x00 0xF0 0xBF 0xFF 0xFF,0x5C27,ACK
0.019283000000000,120,DATA,0x108,0x8,0xFF 0xFF 0x00 0x00 0x00 0x00 0x00 0x00,0x5895,ACK
0.019407250000000,121,DATA,0x108,0x8,0x00 0x00 0x00 0x0A 0x78 0x78 0x00 0x00,0x38EE,ACK
0.019537500000000,122,DATA,0x108,0x4,0x66 0xCC 0x66 0xCC,0x680F,ACK
0.019835750000000,123,DATA,0x090,0x8,0x55 0xAA 0x55 0xAA 0x01 0x10 0x0E 0x00,0x677F,ACK
0.019952000000000,124,DATA,0x090,0x8,0xE9 0xFF 0xFF 0xFF 0x66 0x00 0x00 0x00,0x4A7C,ACK
0.020075250000000,125,DATA,0x090,0x6,0x09 0x00 0x00 0x00 0x3D 0x03,0x2FE4,ACK
0.020186500000000,126,DATA,0x090,0x4,0x66 0xCC 0x66 0xCC,0x5148,ACK
0.020422750000000,127,DATA,0x090,0x8,0x55 0xAA 0x55 0xAA 0x02 0x10 0x78 0x00,0x113D,ACK
0.020540000000000,128,DATA,0x090,0x8,0x18 0x10 0xD9 0x5C 0xEF 0x2F 0xC3 0x3F,0x5A2A,ACK
0.020656125000000,129,DATA,0x090,0x8,0x2F 0xF5 0xA3 0x01 0xA4 0x0A 0xED 0x3F,0x194C,ACK
0.020780375000000,130,DATA,0x090,0x8,0x96 0x83 0x0E 0x43 0x00 0xDA 0xE0 0xB9,0x6907,ACK
0.020896625000000,131,DATA,0x090,0x8,0x46 0xB8 0x96 0x3C 0x64 0x00 0x82 0xBF,0x5547,ACK
0.021012875000000,132,DATA,0x090,0x8,0xBF 0x00 0x9A 0xBB 0x73 0xF1 0x73 0x3C,0x0DBD,ACK
0.021136125000000,133,DATA,0x090,0x8,0x52 0xCE 0x4B 0x3B 0x41 0x4A 0x74 0x43,0x26AE,ACK
0.021249375000000,134,DATA,0x090,0x8,0x00 0x00 0x00 0x00 0x00 0x00 0x00 0x00,0x12C7,ACK
0.021374500000000,135,DATA,0x090,0x8,0x00 0x00 0x00 0x00 0x00 0x00 0x00 0x00,0x12C7,ACK
0.021506750000000,136,DATA,0x090,0x8,0x00 0x00 0x00 0x00 0x00 0x00 0x00 0x00,0x12C7,ACK
0.021632000000000,137,DATA,0x090,0x8,0x00 0x00 0x00 0x00 0x00 0x00 0x00 0x00,0x12C7,ACK
0.021757250000000,138,DATA,0x090,0x8,0x00 0x00 0x00 0x00 0x00 0x00 0x00 0x00,0x12C7,ACK
0.021889500000000,139,DATA,0x090,0x8,0x00 0x00 0x00 0x00 0x00 0x00 0x00 0x00,0x12C7,ACK
0.022014750000000,140,DATA,0x090,0x8,0x00 0x00 0x00 0x00 0xD1 0x00 0x94 0x01,0x5744,ACK
0.022136000000000,141,DATA,0x090,0x8,0x7B 0x04 0x33 0x00 0x33 0x00 0x25 0x00,0x4F3F,ACK
0.022262125000000,142,DATA,0x090,0x8,0x18 0x00 0x00 0x00 0x00 0x00 0x8B 0x00,0x37BB,ACK
0.022384375000000,143,DATA,0x090,0x8,0x66 0xCC 0x66 0xCC 0x55 0xAA 0x55 0xAA,0x03E5,ACK
0.022498625000000,144,DATA,0x090,0x8,0x01 0x10 0x0E 0x00 0xEF 0xFF 0xFF 0xFF,0x097F,ACK
0.022627875000000,145,DATA,0x090,0x8,0x6F 0x00 0x00 0x00 0x0F 0x00 0x00 0x00,0x4CD8,ACK
0.022749125000000,146,DATA,0x090,0x6,0x3E 0x03 0x66 0xCC 0x66 0xCC,0x08A6,ACK
0.023078375000000,147,DATA,0x090,0x8,0x55 0xAA 0x55 0xAA 0x01 0x10 0x0E 0x00,0x677F,ACK
0.023194625000000,148,DATA,0x090,0x8,0xF0 0xFF 0xFF 0xFF 0x73 0x00 0x00 0x00,0x719C,ACK
0.023314875000000,149,DATA,0x090,0x6,0x13 0x00 0x00 0x00 0x3F 0x03,0x0362,ACK
0.023426125000000,150,DATA,0x090,0x4,0x66 0xCC 0x66 0xCC,0x5148,ACK
0.024746625000000,151,DATA,0x090,0x8,0x55 0xAA 0x55 0xAA 0x01 0x10 0x0E 0x00,0x677F,ACK
0.024862875000000,152,DATA,0x090,0x8,0xEE 0xFF 0xFF 0xFF 0x78 0x00 0x00 0x00,0x7425,ACK
0.024984125000000,153,DATA,0x090,0x6,0x1C 0x00 0x00 0x00 0x40 0x03,0x05CC,ACK
0.025125250000000,154,DATA,0x090,0x4,0x66 0xCC 0x66 0xCC,0x5148,ACK
0.026427875000000,155,DATA,0x090,0x8,0x55 0xAA 0x55 0xAA 0x01 0x10 0x0E 0x00,0x677F,ACK
0.026544000000000,156,DATA,0x090,0x8,0xEC 0xFF 0xFF 0xFF 0x79 0x00 0x00 0x00,0x0124,ACK
0.026666250000000,157,DATA,0x090,0x6,0x21 0x00 0x00 0x00 0x41 0x03,0x6C00,ACK
0.026778500000000,158,DATA,0x090,0x4,0x66 0xCC 0x66 0xCC,0x5148,ACK
0.028096000000000,159,DATA,0x090,0x8,0x55 0xAA 0x55 0xAA 0x01 0x10 0x0E 0x00,0x677F,ACK
0.028212250000000,160,DATA,0x090,0x8,0xE9 0xFF 0xFF 0xFF 0x7B 0x00 0x00 0x00,0x798F,ACK
0.028333500000000,161,DATA,0x090,0x6,0x24 0x00 0x00 0x00 0x42 0x03,0x036F,ACK
0.028443750000000,162,DATA,0x090,0x4,0x66 0xCC 0x66 0xCC,0x5148,ACK
0.029756250000000,163,DATA,0x090,0x8,0x55 0xAA 0x55 0xAA 0x01 0x10 0x0E 0x00,0x677F,ACK
0.029872500000000,164,DATA,0x090,0x8,0xE7 0xFF 0xFF 0xFF 0x7C 0x00 0x00 0x00,0x7C23,ACK
0.029997750000000,165,DATA,0x090,0x6,0x2B 0x00 0x00 0x00 0x43 0x03,0x2974,ACK
0.030126000000000,166,DATA,0x090,0x4,0x66 0xCC 0x66 0xCC,0x5148,ACK
0.030348250000000,167,DATA,0x090,0x8,0x55 0xAA 0x55 0xAA 0x02 0x10 0x78 0x00,0x113D,ACK
0.030465500000000,168,DATA,0x090,0x8,0x18 0x10 0xD9 0x5C 0xEF 0x2F 0xC3 0x3F,0x5A2A,ACK
0.030581625000000,169,DATA,0x090,0x8,0x2F 0xF5 0xA3 0x01 0xA4 0x0A 0xED 0x3F,0x194C,ACK
0.030705875000000,170,DATA,0x090,0x8,0x96 0x83 0x0E 0x43 0x10 0xBD 0xF9 0xBA,0x179F,ACK
0.030821125000000,171,DATA,0x090,0x8,0x10 0xD0 0x97 0x3C 0xBE 0xF9 0x81 0xBF,0x6F80,ACK
0.030940375000000,172,DATA,0x090,0x8,0x3F 0xB5 0x8E 0xBB 0xCF 0x9D 0x94 0x3C,0x1887,ACK
0.031062625000000,173,DATA,0x090,0x8,0x76 0xA7 0x50 0x3B 0x41 0x4A 0x74 0x43,0x1455,ACK
0.031176875000000,174,DATA,0x090,0x8,0x00 0x00 0x00 0x00 0x00 0x00 0x00 0x00,0x12C7,ACK
0.031302000000000,175,DATA,0x090,0x8,0x00 0x00 0x00 0x00 0x00 0x00 0x00 0x00,0x12C7,ACK
0.031434250000000,176,DATA,0x090,0x8,0x00 0x00 0x00 0x00 0x00 0x00 0x00 0x00,0x12C7,ACK
0.031559500000000,177,DATA,0x090,0x8,0x00 0x00 0x00 0x00 0x00 0x00 0x00 0x00,0x12C7,ACK
0.031684750000000,178,DATA,0x090,0x8,0x00 0x00 0x00 0x00 0x00 0x00 0x00 0x00,0x12C7,ACK
0.031817000000000,179,DATA,0x090,0x8,0x00 0x00 0x00 0x00 0x00 0x00 0x00 0x00,0x12C7,ACK
0.031942250000000,180,DATA,0x090,0x8,0x00 0x00 0x00 0x00 0xD1 0x00 0x94 0x01,0x5744,ACK
0.032063500000000,181,DATA,0x090,0x8,0x7B 0x04 0x33 0x00 0x33 0x00 0x25 0x00,0x4F3F,ACK
0.032189625000000,182,DATA,0x090,0x8,0x18 0x00 0x00 0x00 0x00 0x00 0x8C 0x00,0x607B,ACK
0.032313875000000,183,DATA,0x090,0x8,0x66 0xCC 0x66 0xCC 0x55 0xAA 0x55 0xAA,0x03E5,ACK
0.032428125000000,184,DATA,0x090,0x8,0x01 0x10 0x0E 0x00 0xE7 0xFF 0xFF 0xFF,0x3B26,ACK
0.032560375000000,185,DATA,0x090,0x8,0x7C 0x00 0x00 0x00 0x2F 0x00 0x00 0x00,0x3540,ACK
0.032684625000000,186,DATA,0x090,0x6,0x44 0x03 0x66 0xCC 0x66 0xCC,0x5372,ACK
0.032811875000000,187,DATA,0x108,0x8,0x55 0xAA 0x55 0xAA 0x09 0x10 0xB8 0x00,0x5AD4,ACK
0.033083125000000,188,DATA,0x090,0x8,0x55 0xAA 0x55 0xAA 0x01 0x10 0x0E 0x00,0x677F,ACK
0.033199375000000,189,DATA,0x090,0x8,0xE8 0xFF 0xFF 0xFF 0x7B 0x00 0x00 0x00,0x2EBF,ACK
0.033321625000000,190,DATA,0x090,0x6,0x39 0x00 0x00 0x00 0x45 0x03,0x6F38,ACK
0.033430750000000,191,DATA,0x090,0x4,0x66 0xCC 0x66 0xCC,0x5148,ACK
0.033511000000000,192,DATA,0x108,0x8,0x44 0x4A 0x49 0x01 0x18 0x42 0x18 0x42,0x2D17,ACK
0.033624250000000,193,DATA,0x108,0x8,0x18 0x42 0x18 0x42 0x00 0x00 0x00 0x00,0x6D74,ACK
0.033752500000000,194,DATA,0x108,0x8,0x00 0x00 0x64 0x00 0x00 0x00 0x00 0x00,0x2E47,ACK
0.033876750000000,195,DATA,0x108,0x8,0x17 0xFC 0xE9 0x03 0xE9 0x03 0x00 0x00,0x73CC,ACK
0.033996875000000,196,DATA,0x108,0x8,0xEB 0x01 0xE9 0x03 0x17 0xFC 0x17 0xFC,0x2B37,ACK
0.034123125000000,197,DATA,0x108,0x8,0xE9 0x03 0xE9 0x03 0x00 0x00 0x00 0x00,0x4FEE,ACK
0.034245375000000,198,DATA,0x108,0x8,0xF0 0x04 0x00 0x00 0x00 0x00 0x27 0x02,0x29FA,ACK
0.034367625000000,199,DATA,0x108,0x8,0x00 0x00 0x00 0x00 0x00 0x00 0xF3 0x8F,0x1ECC,ACK
0.034498875000000,200,DATA,0x108,0x8,0x00 0x00 0x00 0x00 0x00 0x00 0x00 0x00,0x6C70,ACK
0.034624125000000,201,DATA,0x108,0x8,0x00 0x00 0x00 0x00 0x00 0x00 0x00 0x00,0x6C70,ACK
0.034749375000000,202,DATA,0x108,0x8,0x00 0x00 0x00 0x00 0x45 0x00 0x00 0x00,0x1092,ACK
0.034880500000000,203,DATA,0x090,0x8,0x55 0xAA 0x55 0xAA 0x01 0x10 0x0E 0x00,0x677F,ACK
0.034996750000000,204,DATA,0x090,0x8,0xE8 0xFF 0xFF 0xFF 0x7A 0x00 0x00 0x00,0x3047,ACK
0.035119000000000,205,DATA,0x090,0x8,0x3E 0x00 0x00 0x00 0x46 0x03 0x66 0xCC,0x4492,ACK
0.035245250000000,206,DATA,0x090,0x2,0x66 0xCC,0x1021,ACK
0.035310500000000,207,DATA,0x108,0x8,0x00 0x00 0x00 0x00 0x00 0x00 0x00 0x80,0x4E63,ACK
0.035434750000000,208,DATA,0x108,0x8,0x00 0x40 0x0D 0xC4 0x24 0x00 0x00 0x00,0x40CB,ACK
0.035565875000000,209,DATA,0x108,0x8,0x00 0x00 0x00 0x00 0x00 0x00 0x00 0x00,0x6C70,ACK
0.035691125000000,210,DATA,0x108,0x8,0x00 0x00 0x00 0x00 0x00 0x00 0x00 0x00,0x6C70,ACK
0.035816375000000,211,DATA,0x108,0x8,0x00 0x00 0x00 0x00 0x00 0x00 0x00 0x00,0x6C70,ACK
0.035950625000000,212,DATA,0x108,0x8,0x00 0x00 0x00 0x00 0x00 0x00 0x00 0x00,0x6C70,ACK
0.036075875000000,213,DATA,0x108,0x8,0xB1 0x30 0x41 0x4A 0x74 0x43 0xB0 0x57,0x1F65,ACK
0.036192125000000,214,DATA,0x108,0x8,0x75 0x43 0x00 0x00 0x00 0x00 0x00 0x00,0x149B,ACK
0.036323375000000,215,DATA,0x108,0x8,0x00 0x00 0x00 0x00 0x00 0x00 0x00 0x00,0x6C70,ACK
0.036448500000000,216,DATA,0x108,0x8,0x00 0x00 0x00 0x00 0xF0 0xBF 0xFF 0xFF,0x5C27,ACK
0.036573750000000,217,DATA,0x108,0x8,0xFF 0xFF 0x00 0x00 0x00 0x00 0x00 0x00,0x5895,ACK
0.036705000000000,218,DATA,0x090,0x8,0x55 0xAA 0x55 0xAA 0x01 0x10 0x0E 0x00,0x677F,ACK
0.036821250000000,219,DATA,0x090,0x8,0xE8 0xFF 0xFF 0xFF 0x78 0x00 0x00 0x00,0x0DB7,ACK
0.036943500000000,220,DATA,0x090,0x8,0x43 0x00 0x00 0x00 0x47 0x03 0x66 0xCC,0x4C91,ACK
0.037067750000000,221,DATA,0x090,0x2,0x66 0xCC,0x1021,ACK
0.037132875000000,222,DATA,0x108,0x8,0x00 0x00 0x00 0x0A 0x78 0x78 0x00 0x00,0x38EE,ACK
0.037255125000000,223,DATA,0x108,0x4,0x66 0xCC 0x66 0xCC,0x680F,ACK
0.038084625000000,224,DATA,0x090,0x8,0x55 0xAA 0x55 0xAA 0x01 0x10 0x0E 0x00,0x677F,ACK
0.038200750000000,225,DATA,0x090,0x8,0xE8 0xFF 0xFF 0xFF 0x72 0x00 0x00 0x00,0x021E,ACK
0.038323000000000,226,DATA,0x090,0x6,0x49 0x00 0x00 0x00 0x48 0x03,0x5FA7,ACK
0.038440250000000,227,DATA,0x090,0x4,0x66 0xCC 0x66 0xCC,0x5148,ACK
0.039766750000000,228,DATA,0x090,0x8,0x55 0xAA 0x55 0xAA 0x01 0x10 0x0E 0x00,0x677F,ACK
0.039883000000000,229,DATA,0x090,0x8,0xE9 0xFF 0xFF 0xFF 0x6F 0x00 0x00 0x00,0x66DD,ACK
0.040004250000000,230,DATA,0x090,0x6,0x4A 0x00 0x00 0x00 0x49 0x03,0x39F5,ACK
0.040135500000000,231,DATA,0x090,0x4,0x66 0xCC 0x66 0xCC,0x5148,ACK
0.040367750000000,232,DATA,0x090,0x8,0x55 0xAA 0x55 0xAA 0x02 0x10 0x78 0x00,0x113D,ACK
0.040485000000000,233,DATA,0x090,0x8,0x18 0x10 0xD9 0x5C 0xEF 0x2F 0xC3 0x3F,0x5A2A,ACK
0.040601250000000,234,DATA,0x090,0x8,0x2F 0xF5 0xA3 0x01 0xA4 0x0A 0xED 0x3F,0x194C,ACK
0.040725375000000,235,DATA,0x090,0x8,0x96 0x83 0x0E 0x43 0x30 0x98 0x0B 0xBB,0x5521,ACK
0.040839625000000,236,DATA,0x090,0x8,0xCE 0x40 0x9C 0x3C 0x5C 0xD3 0x81 0xBF,0x508A,ACK
0.040954875000000,237,DATA,0x090,0x8,0xDB 0x30 0x83 0xBB 0x41 0x8A 0xA7 0x3C,0x15E0,ACK
0.041077125000000,238,DATA,0x090,0x8,0x95 0x7B 0xEB 0x3B 0xDD 0x51 0x74 0x43,0x419F,ACK
0.041192375000000,239,DATA,0x090,0x8,0x00 0x00 0x00 0x00 0x00 0x00 0x00 0x00,0x12C7,ACK
0.041317625000000,240,DATA,0x090,0x8,0x00 0x00 0x00 0x00 0x00 0x00 0x00 0x00,0x12C7,ACK
0.041449875000000,241,DATA,0x090,0x8,0x00 0x00 0x00 0x00 0x00 0x00 0x00 0x00,0x12C7,ACK
0.041575000000000,242,DATA,0x090,0x8,0x00 0x00 0x00 0x00 0x00 0x00 0x00 0x00,0x12C7,ACK
0.041700250000000,243,DATA,0x090,0x8,0x00 0x00 0x00 0x00 0x00 0x00 0x00 0x00,0x12C7,ACK
0.041832500000000,244,DATA,0x090,0x8,0x00 0x00 0x00 0x00 0x00 0x00 0x00 0x00,0x12C7,ACK
0.041957750000000,245,DATA,0x090,0x8,0x00 0x00 0x00 0x00 0xD1 0x00 0x94 0x01,0x5744,ACK
0.042079000000000,246,DATA,0x090,0x8,0x7B 0x04 0x33 0x00 0x33 0x00 0x25 0x00,0x4F3F,ACK
0.042205250000000,247,DATA,0x090,0x8,0x18 0x00 0x00 0x00 0x00 0x00 0x8D 0x00,0x245D,ACK
0.042327375000000,248,DATA,0x090,0x8,0x66 0xCC 0x66 0xCC 0x55 0xAA 0x55 0xAA,0x03E5,ACK
0.042441625000000,249,DATA,0x090,0x8,0x01 0x10 0x0E 0x00 0xEA 0xFF 0xFF 0xFF,0x6C67,ACK
0.042569875000000,250,DATA,0x090,0x8,0x67 0x00 0x00 0x00 0x48 0x00 0x00 0x00,0x291C,ACK
0.042692125000000,251,DATA,0x090,0x6,0x4A 0x03 0x66 0xCC 0x66 0xCC,0x2363,ACK
0.043084375000000,252,DATA,0x090,0x8,0x55 0xAA 0x55 0xAA 0x01 0x10 0x0E 0x00,0x677F,ACK
0.043200625000000,253,DATA,0x090,0x8,0xEA 0xFF 0xFF 0xFF 0x63 0x00 0x00 0x00,0x13AD,ACK
0.043321875000000,254,DATA,0x090,0x6,0x46 0x00 0x00 0x00 0x4B 0x03,0x3869,ACK
0.043431125000000,255,DATA,0x090,0x4,0x66 0xCC 0x66 0xCC,0x5148,ACK
0.044793625000000,256,DATA,0x090,0x8,0x55 0xAA 0x55 0xAA 0x01 0x10 0x0E 0x00,0x677F,ACK
0.044909875000000,257,DATA,0x090,0x8,0xEB 0xFF 0xFF 0xFF 0x5E 0x00 0x00 0x00,0x7B93,ACK
0.045033125000000,258,DATA,0x090,0x6,0x42 0x00 0x00 0x00 0x4C 0x03,0x1719,ACK
0.045142375000000,259,DATA,0x090,0x4,0x66 0xCC 0x66 0xCC,0x5148,ACK
0.046417875000000,260,DATA,0x090,0x8,0x55 0xAA 0x55 0xAA 0x01 0x10 0x0E 0x00,0x677F,ACK
0.046534125000000,261,DATA,0x090,0x8,0xEA 0xFF 0xFF 0xFF 0x55 0x00 0x00 0x00,0x3DF2,ACK
0.046657375000000,262,DATA,0x090,0x6,0x3A 0x00 0x00 0x00 0x4D 0x03,0x34B3,ACK
0.046766500000000,263,DATA,0x090,0x4,0x66 0xCC 0x66 0xCC,0x5148,ACK
0.048086125000000,264,DATA,0x090,0x8,0x55 0xAA 0x55 0xAA 0x01 0x10 0x0E 0x00,0x677F,ACK
0.048202375000000,265,DATA,0x090,0x8,0xE9 0xFF 0xFF 0xFF 0x51 0x00 0x00 0x00,0x7ADB,ACK
0.048323500000000,266,DATA,0x090,0x6,0x35 0x00 0x00 0x00 0x4E 0x03,0x537D,ACK
0.048433750000000,267,DATA,0x090,0x4,0x66 0xCC 0x66 0xCC,0x5148,ACK
0.049767250000000,268,DATA,0x090,0x8,0x55 0xAA 0x55 0xAA 0x01 0x10 0x0E 0x00,0x677F,ACK
0.049883500000000,269,DATA,0x090,0x8,0xE7 0xFF 0xFF 0xFF 0x4A 0x00 0x00 0x00,0x527C,ACK
0.050006750000000,270,DATA,0x090,0x6,0x29 0x00 0x00 0x00 0x4F 0x03,0x32E0,ACK
0.050110125000000,271,DATA,0x118,0x8,0x55 0xAA 0x55 0xAA 0x04 0x10 0x06 0x00,0x7106,ACK
0.050227250000000,272,DATA,0x090,0x4,0x66 0xCC 0x66 0xCC,0x5148,ACK
0.050307500000000,273,DATA,0x118,0x6,0x15 0x00 0x82 0x00 0x0C 0x01,0x3BA0,ACK
0.050409625000000,274,DATA,0x090,0x8,0x55 0xAA 0x55 0xAA 0x02 0x10 0x78 0x00,0x113D,ACK
0.050526875000000,275,DATA,0x090,0x8,0x18 0x10 0xD9 0x5C 0xEF 0x2F 0xC3 0x3F,0x5A2A,ACK
0.050643125000000,276,DATA,0x090,0x8,0x2F 0xF5 0xA3 0x01 0xA4 0x0A 0xED 0x3F,0x194C,ACK
0.050760375000000,277,DATA,0x118,0x4,0x66 0xCC 0x66 0xCC,0x5CF6,ACK
0.050840625000000,278,DATA,0x090,0x8,0x96 0x83 0x0E 0x43 0x90 0xE6 0xDE 0xBA,0x7D00,ACK
0.050955750000000,279,DATA,0x090,0x8,0x54 0x10 0x9A 0x3C 0xF0 0xCE 0x81 0xBF,0x6A49,ACK
0.051071000000000,280,DATA,0x090,0x8,0x77 0xF2 0x87 0xBB 0x4F 0xD9 0x97 0x3C,0x1074,ACK
0.051193250000000,281,DATA,0x090,0x8,0xC0 0xA5 0x2C 0x3C 0xDD 0x51 0x74 0x43,0x5355,ACK
0.051306500000000,282,DATA,0x090,0x8,0x00 0x00 0x00 0x00 0x00 0x00 0x00 0x00,0x12C7,ACK
0.051431750000000,283,DATA,0x090,0x8,0x00 0x00 0x00 0x00 0x00 0x00 0x00 0x00,0x12C7,ACK
0.051566000000000,284,DATA,0x090,0x8,0x00 0x00 0x00 0x00 0x00 0x00 0x00 0x00,0x12C7,ACK
0.051691250000000,285,DATA,0x090,0x8,0x00 0x00 0x00 0x00 0x00 0x00 0x00 0x00,0x12C7,ACK
0.051816375000000,286,DATA,0x090,0x8,0x00 0x00 0x00 0x00 0x00 0x00 0x00 0x00,0x12C7,ACK
0.051948625000000,287,DATA,0x090,0x8,0x00 0x00 0x00 0x00 0x00 0x00 0x00 0x00,0x12C7,ACK
0.052073875000000,288,DATA,0x090,0x8,0x00 0x00 0x00 0x00 0xD1 0x00 0x94 0x01,0x5744,ACK
0.052195125000000,289,DATA,0x090,0x8,0x7B 0x04 0x33 0x00 0x33 0x00 0x25 0x00,0x4F3F,ACK
0.052321375000000,290,DATA,0x090,0x8,0x18 0x00 0x00 0x00 0x00 0x00 0x8E 0x00,0x2DAE,ACK
0.052444625000000,291,DATA,0x090,0x8,0x66 0xCC 0x66 0xCC 0x55 0xAA 0x55 0xAA,0x03E5,ACK
0.052558875000000,292,DATA,0x090,0x8,0x01 0x10 0x0E 0x00 0xE6 0xFF 0xFF 0xFF,0x25DE,ACK
0.052686000000000,293,DATA,0x090,0x8,0x48 0x00 0x00 0x00 0x24 0x00 0x00 0x00,0x2917,ACK
0.052808250000000,294,DATA,0x090,0x6,0x50 0x03 0x66 0xCC 0x66 0xCC,0x4230,ACK
0.053094500000000,295,DATA,0x090,0x8,0x55 0xAA 0x55 0xAA 0x01 0x10 0x0E 0x00,0x677F,ACK
0.053210750000000,296,DATA,0x090,0x8,0xE5 0xFF 0xFF 0xFF 0x45 0x00 0x00 0x00,0x5334,ACK
0.053332000000000,297,DATA,0x090,0x6,0x1F 0x00 0x00 0x00 0x51 0x03,0x55F9,ACK
0.053443250000000,298,DATA,0x090,0x4,0x66 0xCC 0x66 0xCC,0x5148,ACK
0.053523500000000,299,DATA,0x108,0x8,0x55 0xAA 0x55 0xAA 0x09 0x10 0xB8 0x00,0x5AD4,ACK
0.053638625000000,300,DATA,0x108,0x8,0x44 0x4A 0x49 0x01 0x18 0x42 0x18 0x42,0x2D17,ACK
0.053760875000000,301,DATA,0x108,0x8,0x18 0x42 0x18 0x42 0x00 0x00 0x00 0x00,0x6D74,ACK
0.053880125000000,302,DATA,0x108,0x8,0x00 0x00 0x64 0x00 0x00 0x00 0x00 0x00,0x2E47,ACK
0.054004375000000,303,DATA,0x108,0x8,0x17 0xFC 0xE9 0x03 0xE9 0x03 0x00 0x00,0x73CC,ACK
0.054133625000000,304,DATA,0x108,0x8,0xEB 0x01 0xE9 0x03 0x17 0xFC 0x17 0xFC,0x2B37,ACK
0.054250875000000,305,DATA,0x108,0x8,0xE9 0x03 0xE9 0x03 0x00 0x00 0x00 0x00,0x4FEE,ACK
0.054373125000000,306,DATA,0x108,0x8,0xF0 0x04 0x00 0x00 0x00 0x00 0x2A 0x02,0x4A10,ACK
0.054503250000000,307,DATA,0x108,0x8,0x00 0x00 0x00 0x00 0x00 0x00 0xF3 0x8F,0x1ECC,ACK
0.054625500000000,308,DATA,0x108,0x8,0x00 0x00 0x00 0x00 0x00 0x00 0x00 0x00,0x6C70,ACK
0.054750750000000,309,DATA,0x108,0x8,0x00 0x00 0x00 0x00 0x00 0x00 0x00 0x00,0x6C70,ACK
0.054883000000000,310,DATA,0x090,0x8,0x55 0xAA 0x55 0xAA 0x01 0x10 0x0E 0x00,0x677F,ACK
0.054999250000000,311,DATA,0x090,0x8,0xE3 0xFF 0xFF 0xFF 0x42 0x00 0x00 0x00,0x724E,ACK
0.055121500000000,312,DATA,0x090,0x8,0x19 0x00 0x00 0x00 0x52 0x03 0x66 0xCC,0x23A3,ACK
0.055246750000000,313,DATA,0x090,0x2,0x66 0xCC,0x1021,ACK
0.055311875000000,314,DATA,0x108,0x8,0x00 0x00 0x00 0x00 0x46 0x00 0x00 0x00,0x339A,ACK
0.055436125000000,315,DATA,0x108,0x8,0x00 0x00 0x00 0x00 0x00 0x00 0x00 0x80,0x4E63,ACK
0.055569375000000,316,DATA,0x108,0x8,0x00 0x40 0x0D 0xC4 0x24 0x00 0x00 0x00,0x40CB,ACK
0.055691625000000,317,DATA,0x108,0x8,0x00 0x00 0x00 0x00 0x00 0x00 0x00 0x00,0x6C70,ACK
0.055816875000000,318,DATA,0x108,0x8,0x00 0x00 0x00 0x00 0x00 0x00 0x00 0x00,0x6C70,ACK
0.055951125000000,319,DATA,0x108,0x8,0x00 0x00 0x00 0x00 0x00 0x00 0x00 0x00,0x6C70,ACK
0.056076250000000,320,DATA,0x108,0x8,0x00 0x00 0x00 0x00 0x00 0x00 0x00 0x00,0x6C70,ACK
0.056201500000000,321,DATA,0x108,0x8,0xB4 0x30 0xDD 0x51 0x74 0x43 0xB0 0x57,0x30BC,ACK
0.056323750000000,322,DATA,0x108,0x8,0x75 0x43 0x00 0x00 0x00 0x00 0x00 0x00,0x149B,ACK
0.056446000000000,323,DATA,0x108,0x8,0x00 0x00 0x00 0x00 0x00 0x00 0x00 0x00,0x6C70,ACK
0.056571250000000,324,DATA,0x108,0x8,0x00 0x00 0x00 0x00 0xF0 0xBF 0xFF 0xFF,0x5C27,ACK
0.056703500000000,325,DATA,0x090,0x8,0x55 0xAA 0x55 0xAA 0x01 0x10 0x0E 0x00,0x677F,ACK
0.056819625000000,326,DATA,0x090,0x8,0xE2 0xFF 0xFF 0xFF 0x42 0x00 0x00 0x00,0x257E,ACK
0.056941875000000,327,DATA,0x090,0x8,0x16 0x00 0x00 0x00 0x53 0x03 0x66 0xCC,0x372F,ACK
0.057067125000000,328,DATA,0x090,0x2,0x66 0xCC,0x1021,ACK
0.057132375000000,329,DATA,0x108,0x8,0xFF 0xFF 0x00 0x00 0x00 0x00 0x00 0x00,0x5895,ACK
0.057256625000000,330,DATA,0x108,0x8,0x00 0x00 0x00 0x0A 0x78 0x78 0x00 0x00,0x38EE,ACK
0.057386875000000,331,DATA,0x108,0x4,0x66 0xCC 0x66 0xCC,0x680F,ACK
0.058123250000000,332,DATA,0x090,0x8,0x55 0xAA 0x55 0xAA 0x01 0x10 0x0E 0x00,0x677F,ACK
0.058239500000000,333,DATA,0x090,0x8,0xE0 0xFF 0xFF 0xFF 0x44 0x00 0x00 0x00,0x0897,ACK
0.058362625000000,334,DATA,0x090,0x6,0x15 0x00 0x00 0x00 0x54 0x03,0x474D,ACK
0.058471875000000,335,DATA,0x090,0x4,0x66 0xCC 0x66 0xCC,0x5148,ACK
0.059754375000000,336,DATA,0x090,0x8,0x55 0xAA 0x55 0xAA 0x01 0x10 0x0E 0x00,0x677F,ACK
0.059870625000000,337,DATA,0x090,0x8,0xDD 0xFF 0xFF 0xFF 0x49 0x00 0x00 0x00,0x2136,ACK
0.059992875000000,338,DATA,0x090,0x6,0x14 0x00 0x00 0x00 0x55 0x03,0x1D47,ACK
0.060134125000000,339,DATA,0x090,0x4,0x66 0xCC 0x66 0xCC,0x5148,ACK
0.060371375000000,340,DATA,0x090,0x8,0x55 0xAA 0x55 0xAA 0x02 0x10 0x78 0x00,0x113D,ACK
0.060488625000000,341,DATA,0x090,0x8,0x18 0x10 0xD9 0x5C 0xEF 0x2F 0xC3 0x3F,0x5A2A,ACK
0.060604875000000,342,DATA,0x090,0x8,0x2F 0xF5 0xA3 0x01 0xA4 0x0A 0xED 0x3F,0x194C,ACK
0.060729125000000,343,DATA,0x090,0x8,0x96 0x83 0x0E 0x43 0x80 0xEE 0x39 0x39,0x7CCF,ACK
0.060844250000000,344,DATA,0x090,0x8,0x2E 0x97 0x93 0x3C 0x94 0xBA 0x81 0xBF,0x1C66,ACK
0.060959500000000,345,DATA,0x090,0x8,0x13 0x82 0x96 0xBB 0xC3 0xDC 0x6F 0x3C,0x1720,ACK
0.061081750000000,346,DATA,0x090,0x8,0x86 0x1E 0x06 0x3C 0x75 0x3D 0x74 0x43,0x567C,ACK
0.061196000000000,347,DATA,0x090,0x8,0x00 0x00 0x00 0x00 0x00 0x00 0x00 0x00,0x12C7,ACK
0.061321250000000,348,DATA,0x090,0x8,0x00 0x00 0x00 0x00 0x00 0x00 0x00 0x00,0x12C7,ACK
0.061453500000000,349,DATA,0x090,0x8,0x00 0x00 0x00 0x00 0x00 0x00 0x00 0x00,0x12C7,ACK
0.061578625000000,350,DATA,0x090,0x8,0x00 0x00 0x00 0x00 0x00 0x00 0x00 0x00,0x12C7,ACK
0.061703875000000,351,DATA,0x090,0x8,0x00 0x00 0x00 0x00 0x00 0x00 0x00 0x00,0x12C7,ACK
0.061836125000000,352,DATA,0x090,0x8,0x00 0x00 0x00 0x00 0x00 0x00 0x00 0x00,0x12C7,ACK
0.061961375000000,353,DATA,0x090,0x8,0x00 0x00 0x00 0x00 0xCB 0x00 0x9B 0x01,0x1260,ACK
0.062083625000000,354,DATA,0x090,0x8,0x74 0x04 0x33 0x00 0x33 0x00 0x25 0x00,0x454B,ACK
0.062208875000000,355,DATA,0x090,0x8,0x18 0x00 0x00 0x00 0x00 0x00 0x8F 0x00,0x6988,ACK
0.062331125000000,356,DATA,0x090,0x8,0x66 0xCC 0x66 0xCC 0x55 0xAA 0x55 0xAA,0x03E5,ACK
0.062445250000000,357,DATA,0x090,0x8,0x01 0x10 0x0E 0x00 0xDC 0xFF 0xFF 0xFF,0x4238,ACK
0.062574500000000,358,DATA,0x090,0x8,0x4C 0x00 0x00 0x00 0x14 0x00 0x00 0x00,0x5333,ACK
0.062696750000000,359,DATA,0x090,0x6,0x56 0x03 0x66 0xCC 0x66 0xCC,0x06D8,ACK
0.063105125000000,360,DATA,0x090,0x8,0x55 0xAA 0x55 0xAA 0x01 0x10 0x0E 0x00,0x677F,ACK
0.063221250000000,361,DATA,0x090,0x8,0xDE 0xFF 0xFF 0xFF 0x52 0x00 0x00 0x00,0x681C,ACK
0.063343500000000,362,DATA,0x090,0x6,0x17 0x00 0x00 0x00 0x57 0x03,0x72E6,ACK
0.063453750000000,363,DATA,0x090,0x4,0x66 0xCC 0x66 0xCC,0x5148,ACK
0.064757250000000,364,DATA,0x090,0x8,0x55 0xAA 0x55 0xAA 0x01 0x10 0x0E 0x00,0x677F,ACK
0.064873500000000,365,DATA,0x090,0x8,0xE0 0xFF 0xFF 0xFF 0x54 0x00 0x00 0x00,0x6C25,ACK
0.064996750000000,366,DATA,0x090,0x6,0x18 0x00 0x00 0x00 0x58 0x03,0x32E4,ACK
0.065135000000000,367,DATA,0x090,0x4,0x66 0xCC 0x66 0xCC,0x5148,ACK
0.066453500000000,368,DATA,0x090,0x8,0x55 0xAA 0x55 0xAA 0x01 0x10 0x0E 0x00,0x677F,ACK
0.066569750000000,369,DATA,0x090,0x8,0xE3 0xFF 0xFF 0xFF 0x57 0x00 0x00 0x00,0x73E4,ACK
0.066692000000000,370,DATA,0x090,0x6,0x19 0x00 0x00 0x00 0x59 0x03,0x68EE,ACK
0.066801250000000,371,DATA,0x090,0x4,0x66 0xCC 0x66 0xCC,0x5148,ACK
0.068106750000000,372,DATA,0x090,0x8,0x55 0xAA 0x55 0xAA 0x01 0x10 0x0E 0x00,0x677F,ACK
0.068223000000000,373,DATA,0x090,0x8,0xE9 0xFF 0xFF 0xFF 0x5C 0x00 0x00 0x00,0x2D9A,ACK
0.068345250000000,374,DATA,0x090,0x6,0x1B 0x00 0x00 0x00 0x5A 0x03,0x5D45,ACK
0.068454375000000,375,DATA,0x090,0x4,0x66 0xCC 0x66 0xCC,0x5148,ACK
0.069757000000000,376,DATA,0x090,0x8,0x55 0xAA 0x55 0xAA 0x01 0x10 0x0E 0x00,0x677F,ACK
0.069873125000000,377,DATA,0x090,0x8,0xED 0xFF 0xFF 0xFF 0x5F 0x00 0x00 0x00,0x1CF9,ACK
0.069997375000000,378,DATA,0x090,0x6,0x1C 0x00 0x00 0x00 0x5B 0x03,0x43A7,ACK
0.070099625000000,379,DATA,0x118,0x8,0x55 0xAA 0x55 0xAA 0x04 0x10 0x06 0x00,0x7106,ACK
0.070216875000000,380,DATA,0x090,0x4,0x66 0xCC 0x66 0xCC,0x5148,ACK
0.070297125000000,381,DATA,0x118,0x6,0x15 0x00 0x82 0x00 0x0A 0x01,0x2846,ACK
0.070398250000000,382,DATA,0x090,0x8,0x55 0xAA 0x55 0xAA 0x02 0x10 0x78 0x00,0x113D,ACK
0.070515500000000,383,DATA,0x090,0x8,0x18 0x10 0xD9 0x5C 0xEF 0x2F 0xC3 0x3F,0x5A2A,ACK
0.070631750000000,384,DATA,0x090,0x8,0x2F 0xF5 0xA3 0x01 0xA4 0x0A 0xED 0x3F,0x194C,ACK
0.070749000000000,385,DATA,0x118,0x4,0x66 0xCC 0x66 0xCC,0x5CF6,ACK
0.070829250000000,386,DATA,0x090,0x8,0x96 0x83 0x0E 0x43 0xC8 0xD4 0x06 0x3B,0x7B41,ACK
0.070945500000000,387,DATA,0x090,0x8,0x12 0x00 0x8F 0x3C 0x8D 0xAF 0x81 0xBF,0x235C,ACK
0.071062625000000,388,DATA,0x090,0x8,0x27 0xFD 0xA7 0xBB 0x4B 0xBE 0x5E 0x3C,0x32A7,ACK
0.071197875000000,389,DATA,0x090,0x8,0xD9 0x08 0xA4 0x3B 0x26 0x55 0x74 0x43,0x00DF,ACK
0.071312125000000,390,DATA,0x090,0x8,0x00 0x00 0x00 0x00 0x00 0x00 0x00 0x00,0x12C7,ACK
0.071437375000000,391,DATA,0x090,0x8,0x00 0x00 0x00 0x00 0x00 0x00 0x00 0x00,0x12C7,ACK
0.071576625000000,392,DATA,0x090,0x8,0x00 0x00 0x00 0x00 0x00 0x00 0x00 0x00,0x12C7,ACK
0.071701875000000,393,DATA,0x090,0x8,0x00 0x00 0x00 0x00 0x00 0x00 0x00 0x00,0x12C7,ACK
0.071827125000000,394,DATA,0x090,0x8,0x00 0x00 0x00 0x00 0x00 0x00 0x00 0x00,0x12C7,ACK
0.071959250000000,395,DATA,0x090,0x8,0x00 0x00 0x00 0x00 0x00 0x00 0x00 0x00,0x12C7,ACK
0.072084500000000,396,DATA,0x090,0x8,0x00 0x00 0x00 0x00 0xCB 0x00 0x9B 0x01,0x1260,ACK
0.072206750000000,397,DATA,0x090,0x8,0x74 0x04 0x33 0x00 0x33 0x00 0x25 0x00,0x454B,ACK
0.072332000000000,398,DATA,0x090,0x8,0x18 0x00 0x00 0x00 0x00 0x00 0x90 0x00,0x71D0,ACK
0.072455250000000,399,DATA,0x090,0x8,0x66 0xCC 0x66 0xCC 0x55 0xAA 0x55 0xAA,0x03E5,ACK
0.072569500000000,400,DATA,0x090,0x8,0x01 0x10 0x0E 0x00 0xF3 0xFF 0xFF 0xFF,0x2474,ACK
0.072697625000000,401,DATA,0x090,0x8,0x62 0x00 0x00 0x00 0x1F 0x00 0x00 0x00,0x49E7,ACK
0.072820875000000,402,DATA,0x090,0x6,0x5C 0x03 0x66 0xCC 0x66 0xCC,0x0E79,ACK
0.073106250000000,403,DATA,0x090,0x8,0x55 0xAA 0x55 0xAA 0x01 0x10 0x0E 0x00,0x677F,ACK
0.073222375000000,404,DATA,0x090,0x8,0xF6 0xFF 0xFF 0xFF 0x62 0x00 0x00 0x00,0x7244,ACK
0.073343625000000,405,DATA,0x090,0x6,0x20 0x00 0x00 0x00 0x5D 0x03,0x6387,ACK
0.073453875000000,406,DATA,0x090,0x4,0x66 0xCC 0x66 0xCC,0x5148,ACK
0.073534125000000,407,DATA,0x108,0x8,0x55 0xAA 0x55 0xAA 0x09 0x10 0xB8 0x00,0x5AD4,ACK
0.073649375000000,408,DATA,0x108,0x8,0x44 0x4A 0x49 0x01 0x18 0x42 0x18 0x42,0x2D17,ACK
0.073771500000000,409,DATA,0x108,0x8,0x18 0x42 0x18 0x42 0x00 0x00 0x00 0x00,0x6D74,ACK
0.073890750000000,410,DATA,0x108,0x8,0x00 0x00 0x64 0x00 0x00 0x00 0x00 0x00,0x2E47,ACK
0.074015000000000,411,DATA,0x108,0x8,0x17 0xFC 0xE9 0x03 0xE9 0x03 0x00 0x00,0x73CC,ACK
0.074144250000000,412,DATA,0x108,0x8,0xEB 0x01 0xE9 0x03 0x17 0xFC 0x17 0xFC,0x2B37,ACK
0.074261500000000,413,DATA,0x108,0x8,0xE9 0x03 0xE9 0x03 0x00 0x00 0x00 0x00,0x4FEE,ACK
0.074383750000000,414,DATA,0x108,0x8,0xF0 0x04 0x00 0x00 0x00 0x00 0x27 0x02,0x29FA,ACK
0.074524000000000,415,DATA,0x108,0x8,0x00 0x00 0x00 0x00 0x00 0x00 0xF3 0x8F,0x1ECC,ACK
0.074646125000000,416,DATA,0x108,0x8,0x00 0x00 0x00 0x00 0x00 0x00 0x00 0x00,0x6C70,ACK
0.074771375000000,417,DATA,0x108,0x8,0x00 0x00 0x00 0x00 0x00 0x00 0x00 0x00,0x6C70,ACK
0.074903625000000,418,DATA,0x090,0x8,0x55 0xAA 0x55 0xAA 0x01 0x10 0x0E 0x00,0x677F,ACK
0.075019875000000,419,DATA,0x090,0x8,0xF9 0xFF 0xFF 0xFF 0x61 0x00 0x00 0x00,0x5B38,ACK
0.075142125000000,420,DATA,0x090,0x8,0x20 0x00 0x00 0x00 0x5E 0x03 0x66 0xCC,0x0691,ACK
0.075269375000000,421,DATA,0x090,0x2,0x66 0xCC,0x1021,ACK
0.075334500000000,422,DATA,0x108,0x8,0x00 0x00 0x00 0x00 0x47 0x00 0x00 0x00,0x2D62,ACK
0.075458750000000,423,DATA,0x108,0x8,0x00 0x00 0x00 0x00 0x00 0x00 0x00 0x80,0x4E63,ACK
0.075592000000000,424,DATA,0x108,0x8,0x00 0x40 0x0D 0xC4 0x24 0x00 0x00 0x00,0x40CB,ACK
0.075714250000000,425,DATA,0x108,0x8,0x00 0x00 0x00 0x00 0x00 0x00 0x00 0x00,0x6C70,ACK
0.075839500000000,426,DATA,0x108,0x8,0x00 0x00 0x00 0x00 0x00 0x00 0x00 0x00,0x6C70,ACK
0.075973750000000,427,DATA,0x108,0x8,0x00 0x00 0x00 0x00 0x00 0x00 0x00 0x00,0x6C70,ACK
0.076099000000000,428,DATA,0x108,0x8,0x00 0x00 0x00 0x00 0x00 0x00 0x00 0x00,0x6C70,ACK
0.076224125000000,429,DATA,0x108,0x8,0xB6 0x30 0x26 0x55 0x74 0x43 0xB0 0x57,0x53DB,ACK
0.076347375000000,430,DATA,0x108,0x8,0x75 0x43 0x00 0x00 0x00 0x00 0x00 0x00,0x149B,ACK
0.076469625000000,431,DATA,0x108,0x8,0x00 0x00 0x00 0x00 0x00 0x00 0x00 0x00,0x6C70,ACK
0.076594875000000,432,DATA,0x108,0x8,0x00 0x00 0x00 0x00 0xF0 0xBF 0xFF 0xFF,0x5C27,ACK
0.076727125000000,433,DATA,0x090,0x8,0x55 0xAA 0x55 0xAA 0x01 0x10 0x0E 0x00,0x677F,ACK
0.076843375000000,434,DATA,0x090,0x8,0x00 0x00 0x00 0x00 0x5D 0x00 0x00 0x00,0x38CE,ACK
0.076967625000000,435,DATA,0x090,0x8,0x1D 0x00 0x00 0x00 0x5F 0x03 0x66 0xCC,0x6689,ACK
0.077093750000000,436,DATA,0x090,0x2,0x66 0xCC,0x1021,ACK
0.077159000000000,437,DATA,0x108,0x8,0xFF 0xFF 0x00 0x00 0x00 0x00 0x00 0x00,0x5895,ACK
0.077283250000000,438,DATA,0x108,0x8,0x00 0x00 0x00 0x0A 0x78 0x78 0x00 0x00,0x38EE,ACK
0.077413500000000,439,DATA,0x108,0x4,0x66 0xCC 0x66 0xCC,0x680F,ACK
0.078143875000000,440,DATA,0x090,0x8,0x55 0xAA 0x55 0xAA 0x01 0x10 0x0E 0x00,0x677F,ACK
0.078260125000000,441,DATA,0x090,0x8,0x04 0x00 0x00 0x00 0x5B 0x00 0x00 0x00,0x6CB5,ACK
0.078382375000000,442,DATA,0x090,0x6,0x1B 0x00 0x00 0x00 0x60 0x03,0x33C6,ACK
0.078492500000000,443,DATA,0x090,0x4,0x66 0xCC 0x66 0xCC,0x5148,ACK
0.079759125000000,444,DATA,0x090,0x8,0x55 0xAA 0x55 0xAA 0x01 0x10 0x0E 0x00,0x677F,ACK
0.079875250000000,445,DATA,0x090,0x8,0x08 0x00 0x00 0x00 0x5A 0x00 0x00 0x00,0x44F0,ACK
0.079998500000000,446,DATA,0x090,0x6,0x17 0x00 0x00 0x00 0x61 0x03,0x3BA9,ACK
0.080138750000000,447,DATA,0x090,0x4,0x66 0xCC 0x66 0xCC,0x5148,ACK
0.080329000000000,448,DATA,0x090,0x8,0x55 0xAA 0x55 0xAA 0x02 0x10 0x78 0x00,0x113D,ACK
0.080446250000000,449,DATA,0x090,0x8,0x18 0x10 0xD9 0x5C 0xEF 0x2F 0xC3 0x3F,0x5A2A,ACK
0.080562500000000,450,DATA,0x090,0x8,0x2F 0xF5 0xA3 0x01 0xA4 0x0A 0xED 0x3F,0x194C,ACK
0.080686750000000,451,DATA,0x090,0x8,0x96 0x83 0x0E 0x43 0x14 0x71 0x6B 0x3B,0x58B0,ACK
0.080799875000000,452,DATA,0x090,0x8,0xAA 0xF4 0x90 0x3C 0x2A 0xF6 0x81 0xBF,0x4985,ACK
0.080915125000000,453,DATA,0x090,0x8,0xA6 0x33 0x4B 0xBB 0xD3 0x1D 0x7F 0x3C,0x6E5F,ACK
0.081036375000000,454,DATA,0x090,0x8,0x27 0xC9 0x99 0x3B 0xB5 0x56 0x74 0x43,0x7B66,ACK
0.081151625000000,455,DATA,0x090,0x8,0x00 0x00 0x00 0x00 0x00 0x00 0x00 0x00,0x12C7,ACK
0.081276875000000,456,DATA,0x090,0x8,0x00 0x00 0x00 0x00 0x00 0x00 0x00 0x00,0x12C7,ACK
0.081409125000000,457,DATA,0x090,0x8,0x00 0x00 0x00 0x00 0x00 0x00 0x00 0x00,0x12C7,ACK
0.081534375000000,458,DATA,0x090,0x8,0x00 0x00 0x00 0x00 0x00 0x00 0x00 0x00,0x12C7,ACK
0.081659500000000,459,DATA,0x090,0x8,0x00 0x00 0x00 0x00 0x00 0x00 0x00 0x00,0x12C7,ACK
0.081791750000000,460,DATA,0x090,0x8,0x00 0x00 0x00 0x00 0x00 0x00 0x00 0x00,0x12C7,ACK
0.081917000000000,461,DATA,0x090,0x8,0x00 0x00 0x00 0x00 0xCB 0x00 0x9B 0x01,0x1260,ACK
0.082039250000000,462,DATA,0x090,0x8,0x6E 0x04 0x33 0x00 0x33 0x00 0x25 0x00,0x43C8,ACK
0.082164500000000,463,DATA,0x090,0x8,0x18 0x00 0x00 0x00 0x00 0x00 0x91 0x00,0x35F6,ACK
0.082287750000000,464,DATA,0x090,0x8,0x66 0xCC 0x66 0xCC 0x55 0xAA 0x55 0xAA,0x03E5,ACK
0.082401875000000,465,DATA,0x090,0x8,0x01 0x10 0x0E 0x00 0x07 0x00 0x00 0x00,0x687D,ACK
0.082531125000000,466,DATA,0x090,0x8,0x5B 0x00 0x00 0x00 0x16 0x00 0x00 0x00,0x09CD,ACK
0.082653375000000,467,DATA,0x090,0x6,0x62 0x03 0x66 0xCC 0x66 0xCC,0x01E7,ACK
0.083140750000000,468,DATA,0x090,0x8,0x55 0xAA 0x55 0xAA 0x01 0x10 0x0E 0x00,0x677F,ACK
0.083257000000000,469,DATA,0x090,0x8,0x04 0x00 0x00 0x00 0x5B 0x00 0x00 0x00,0x6CB5,ACK
0.083379125000000,470,DATA,0x090,0x6,0x17 0x00 0x00 0x00 0x63 0x03,0x767C,ACK
0.083490375000000,471,DATA,0x090,0x4,0x66 0xCC 0x66 0xCC,0x5148,ACK
0.084761875000000,472,DATA,0x090,0x8,0x55 0xAA 0x55 0xAA 0x01 0x10 0x0E 0x00,0x677F,ACK
0.084878125000000,473,DATA,0x090,0x8,0xFB 0xFF 0xFF 0xFF 0x5A 0x00 0x00 0x00,0x49DF,ACK
0.085002375000000,474,DATA,0x090,0x6,0x1B 0x00 0x00 0x00 0x64 0x03,0x6DF5,ACK
0.085140625000000,475,DATA,0x090,0x4,0x66 0xCC 0x66 0xCC,0x5148,ACK
0.086428125000000,476,DATA,0x090,0x8,0x55 0xAA 0x55 0xAA 0x01 0x10 0x0E 0x00,0x677F,ACK
0.086544375000000,477,DATA,0x090,0x8,0xF6 0xFF 0xFF 0xFF 0x59 0x00 0x00 0x00,0x0B5A,ACK
0.086665625000000,478,DATA,0x090,0x6,0x1E 0x00 0x00 0x00 0x65 0x03,0x4F4F,ACK
0.086774875000000,479,DATA,0x090,0x4,0x66 0xCC 0x66 0xCC,0x5148,ACK
0.088118375000000,480,DATA,0x090,0x8,0x55 0xAA 0x55 0xAA 0x01 0x10 0x0E 0x00,0x677F,ACK
0.088234625000000,481,DATA,0x090,0x8,0xF3 0xFF 0xFF 0xFF 0x5B 0x00 0x00 0x00,0x73F1,ACK
0.088356875000000,482,DATA,0x090,0x6,0x24 0x00 0x00 0x00 0x66 0x03,0x3192,ACK
0.088466000000000,483,DATA,0x090,0x4,0x66 0xCC 0x66 0xCC,0x5148,ACK
0.089761625000000,484,DATA,0x090,0x8,0x55 0xAA 0x55 0xAA 0x01 0x10 0x0E 0x00,0x677F,ACK
0.089877875000000,485,DATA,0x090,0x8,0xF5 0xFF 0xFF 0xFF 0x5E 0x00 0x00 0x00,0x6F7B,ACK
0.090000000000000,486,DATA,0x090,0x6,0x28 0x00 0x00 0x00 0x67 0x03,0x39FD,ACK
0.090148250000000,487,DATA,0x090,0x4,0x66 0xCC 0x66 0xCC,0x5148,ACK
0.090309500000000,488,DATA,0x090,0x8,0x55 0xAA 0x55 0xAA 0x02 0x10 0x78 0x00,0x113D,ACK
0.090426750000000,489,DATA,0x090,0x8,0x18 0x10 0xD9 0x5C 0xEF 0x2F 0xC3 0x3F,0x5A2A,ACK
0.090543000000000,490,DATA,0x090,0x8,0x2F 0xF5 0xA3 0x01 0xA4 0x0A 0xED 0x3F,0x194C,ACK
0.090675250000000,491,DATA,0x090,0x8,0x96 0x83 0x0E 0x43 0x1C 0x32 0x98 0x3B,0x4FA7,ACK
0.090790500000000,492,DATA,0x090,0x8,0xBE 0x24 0x99 0x3C 0x40 0x00 0x82 0xBF,0x1600,ACK
0.090908625000000,493,DATA,0x090,0x8,0xAA 0x14 0x4C 0xBA 0x87 0x26 0x85 0x3C,0x48F4,ACK
0.091027875000000,494,DATA,0x090,0x8,0x2F 0x41 0xA8 0x3B 0xB5 0x56 0x74 0x43,0x75FE,ACK
0.091145125000000,495,DATA,0x090,0x8,0x00 0x00 0x00 0x00 0x00 0x00 0x00 0x00,0x12C7,ACK
0.091270375000000,496,DATA,0x090,0x8,0x00 0x00 0x00 0x00 0x00 0x00 0x00 0x00,0x12C7,ACK
0.091402625000000,497,DATA,0x090,0x8,0x00 0x00 0x00 0x00 0x00 0x00 0x00 0x00,0x12C7,ACK
0.091527875000000,498,DATA,0x090,0x8,0x00 0x00 0x00 0x00 0x00 0x00 0x00 0x00,0x12C7,ACK
0.091653125000000,499,DATA,0x090,0x8,0x00 0x00 0x00 0x00 0x00 0x00 0x00 0x00,0x12C7,ACK
0.091785250000000,500,DATA,0x090,0x8,0x00 0x00 0x00 0x00 0x00 0x00 0x00 0x00,0x12C7,ACK
0.091910500000000,501,DATA,0x090,0x8,0x00 0x00 0x00 0x00 0xCB 0x00 0x9B 0x01,0x1260,ACK
0.092032750000000,502,DATA,0x090,0x8,0x6E 0x04 0x33 0x00 0x33 0x00 0x25 0x00,0x43C8,ACK
0.092158000000000,503,DATA,0x090,0x8,0x18 0x00 0x00 0x00 0x00 0x00 0x92 0x00,0x3C05,ACK
0.092283250000000,504,DATA,0x090,0x8,0x66 0xCC 0x66 0xCC 0x55 0xAA 0x55 0xAA,0x03E5,ACK
0.092397500000000,505,DATA,0x090,0x8,0x01 0x10 0x0E 0x00 0xFA 0xFF 0xFF 0xFF,0x08D5,ACK
0.092525625000000,506,DATA,0x090,0x8,0x61 0x00 0x00 0x00 0x2B 0x00 0x00 0x00,0x6681,ACK
0.092647875000000,507,DATA,0x090,0x6,0x68 0x03 0x66 0xCC 0x66 0xCC,0x0946,ACK
0.092811125000000,508,DATA,0x108,0x8,0x55 0xAA 0x55 0xAA 0x09 0x10 0xB8 0x00,0x5AD4,ACK
0.093097375000000,509,DATA,0x090,0x8,0x55 0xAA 0x55 0xAA 0x01 0x10 0x0E 0x00,0x677F,ACK
0.093213625000000,510,DATA,0x090,0x8,0x02 0x00 0x00 0x00 0x68 0x00 0x00 0x00,0x5E60,ACK
0.093337875000000,511,DATA,0x090,0x6,0x32 0x00 0x00 0x00 0x69 0x03,0x32B7,ACK
0.093447125000000,512,DATA,0x090,0x4,0x66 0xCC 0x66 0xCC,0x5148,ACK
0.093527375000000,513,DATA,0x108,0x8,0x44 0x4A 0x49 0x01 0x18 0x42 0x18 0x42,0x2D17,ACK
0.093640625000000,514,DATA,0x108,0x8,0x18 0x42 0x18 0x42 0x00 0x00 0x00 0x00,0x6D74,ACK
0.093768750000000,515,DATA,0x108,0x8,0x00 0x00 0x64 0x00 0x00 0x00 0x00 0x00,0x2E47,ACK
0.093893000000000,516,DATA,0x108,0x8,0x17 0xFC 0xE9 0x03 0xE9 0x03 0x00 0x00,0x73CC,ACK
0.094013250000000,517,DATA,0x108,0x8,0xEB 0x01 0xE9 0x03 0x17 0xFC 0x17 0xFC,0x2B37,ACK
0.094139500000000,518,DATA,0x108,0x8,0xE9 0x03 0xE9 0x03 0x00 0x00 0x00 0x00,0x4FEE,ACK
0.094261750000000,519,DATA,0x108,0x8,0xF0 0x04 0x00 0x00 0x00 0x00 0x28 0x02,0x07C5,ACK
0.094385000000000,520,DATA,0x108,0x8,0x00 0x00 0x00 0x00 0x00 0x00 0xF3 0x8F,0x1ECC,ACK
0.094516125000000,521,DATA,0x108,0x8,0x00 0x00 0x00 0x00 0x00 0x00 0x00 0x00,0x6C70,ACK
0.094641375000000,522,DATA,0x108,0x8,0x00 0x00 0x00 0x00 0x00 0x00 0x00 0x00,0x6C70,ACK
0.094766625000000,523,DATA,0x108,0x8,0x00 0x00 0x00 0x00 0x48 0x00 0x00 0x00,0x47D3,ACK
0.094898875000000,524,DATA,0x090,0x8,0x55 0xAA 0x55 0xAA 0x01 0x10 0x0E 0x00,0x677F,ACK
0.095015125000000,525,DATA,0x090,0x8,0x05 0x00 0x00 0x00 0x69 0x00 0x00 0x00,0x6E3A,ACK
0.095137375000000,526,DATA,0x090,0x8,0x34 0x00 0x00 0x00 0x6A 0x03 0x66 0xCC,0x4EF9,ACK
0.095263625000000,527,DATA,0x090,0x2,0x66 0xCC,0x1021,ACK
0.095328750000000,528,DATA,0x108,0x8,0x00 0x00 0x00 0x00 0x00 0x00 0x00 0x80,0x4E63,ACK
0.095453000000000,529,DATA,0x108,0x8,0x00 0x40 0x0D 0xC4 0x64 0x00 0x00 0x00,0x5931,ACK
0.095583250000000,530,DATA,0x108,0x8,0x00 0x00 0x00 0x00 0x00 0x00 0x00 0x00,0x6C70,ACK
0.095708500000000,531,DATA,0x108,0x8,0x00 0x00 0x00 0x00 0x00 0x00 0x00 0x00,0x6C70,ACK
0.095833750000000,532,DATA,0x108,0x8,0x00 0x00 0x00 0x00 0x00 0x00 0x00 0x00,0x6C70,ACK
0.095968000000000,533,DATA,0x108,0x8,0x00 0x00 0x00 0x00 0x00 0x00 0x00 0x00,0x6C70,ACK
0.096093125000000,534,DATA,0x108,0x8,0xB7 0x30 0xB5 0x56 0x74 0x43 0xB0 0x57,0x7B38,ACK
0.096207375000000,535,DATA,0x108,0x8,0x75 0x43 0x00 0x00 0x00 0x00 0x00 0x00,0x149B,ACK
0.096338625000000,536,DATA,0x108,0x8,0x00 0x00 0x00 0x00 0x00 0x00 0x00 0x00,0x6C70,ACK
0.096463875000000,537,DATA,0x108,0x8,0x00 0x00 0x00 0x00 0xF0 0xBF 0xFF 0xFF,0x5C27,ACK
0.096589125000000,538,DATA,0x108,0x8,0xFF 0xFF 0x00 0x00 0x00 0x00 0x00 0x00,0x5895,ACK
0.096720375000000,539,DATA,0x090,0x8,0x55 0xAA 0x55 0xAA 0x01 0x10 0x0E 0x00,0x677F,ACK
0.096836625000000,540,DATA,0x090,0x8,0x07 0x00 0x00 0x00 0x67 0x00 0x00 0x00,0x718A,ACK
0.096958750000000,541,DATA,0x090,0x8,0x37 0x00 0x00 0x00 0x6B 0x03 0x66 0xCC,0x6CC8,ACK
0.097084000000000,542,DATA,0x090,0x2,0x66 0xCC,0x1021,ACK
0.097149250000000,543,DATA,0x108,0x8,0x00 0x00 0x00 0x0A 0x78 0x78 0x00 0x00,0x38EE,ACK
0.097271500000000,544,DATA,0x108,0x4,0x66 0xCC 0x66 0xCC,0x680F,ACK
0.098097875000000,545,DATA,0x090,0x8,0x55 0xAA 0x55 0xAA 0x01 0x10 0x0E 0x00,0x677F,ACK
0.098214125000000,546,DATA,0x090,0x8,0x07 0x00 0x00 0x00 0x64 0x00 0x00 0x00,0x5282,ACK
0.098338375000000,547,DATA,0x090,0x6,0x37 0x00 0x00 0x00 0x6C 0x03,0x4E3E,ACK
0.098448625000000,548,DATA,0x090,0x4,0x66 0xCC 0x66 0xCC,0x5148,ACK
0.099796125000000,549,DATA,0x090,0x8,0x55 0xAA 0x55 0xAA 0x01 0x10 0x0E 0x00,0x677F,ACK
0.099912375000000,550,DATA,0x090,0x8,0x09 0x00 0x00 0x00 0x60 0x00 0x00 0x00,0x7426,ACK
0.100035625000000,551,DATA,0x090,0x6,0x37 0x00 0x00 0x00 0x6D 0x03,0x0A18,ACK
0.100144750000000,552,DATA,0x090,0x4,0x66 0xCC 0x66 0xCC,0x5148,ACK
0.100365000000000,553,DATA,0x090,0x8,0x55 0xAA 0x55 0xAA 0x02 0x10 0x78 0x00,0x113D,ACK
0.100482250000000,554,DATA,0x090,0x8,0x18 0x10 0xD9 0x5C 0xEF 0x2F 0xC3 0x3F,0x5A2A,ACK
0.100598500000000,555,DATA,0x090,0x8,0x2F 0xF5 0xA3 0x01 0xA4 0x0A 0xED 0x3F,0x194C,ACK
0.100722750000000,556,DATA,0x090,0x8,0x96 0x83 0x0E 0x43 0x7C 0xCD 0x8E 0x3B,0x5A85,ACK
0.100837000000000,557,DATA,0x090,0x8,0x10 0xEB 0x9C 0x3C 0xF6 0xE5 0x81 0xBF,0x1958,ACK
0.100952250000000,558,DATA,0x090,0x8,0x80 0x46 0x4E 0xB7 0x8B 0xCD 0x88 0x3C,0x296E,ACK
0.101074375000000,559,DATA,0x090,0x8,0x77 0x1F 0xE3 0x3B 0x9D 0x66 0x74 0x43,0x1FF7,ACK
0.101188625000000,560,DATA,0x090,0x8,0x00 0x00 0x00 0x00 0x00 0x00 0x00 0x00,0x12C7,ACK
0.101313875000000,561,DATA,0x090,0x8,0x00 0x00 0x00 0x00 0x00 0x00 0x00 0x00,0x12C7,ACK
0.101446125000000,562,DATA,0x090,0x8,0x00 0x00 0x00 0x00 0x00 0x00 0x00 0x00,0x12C7,ACK
0.101571375000000,563,DATA,0x090,0x8,0x00 0x00 0x00 0x00 0x00 0x00 0x00 0x00,0x12C7,ACK
0.101696625000000,564,DATA,0x090,0x8,0x00 0x00 0x00 0x00 0x00 0x00 0x00 0x00,0x12C7,ACK
0.101828875000000,565,DATA,0x090,0x8,0x00 0x00 0x00 0x00 0x00 0x00 0x00 0x00,0x12C7,ACK
0.101954000000000,566,DATA,0x090,0x8,0x00 0x00 0x00 0x00 0xCB 0x00 0x9B 0x01,0x1260,ACK
0.102076250000000,567,DATA,0x090,0x8,0x6E 0x04 0x33 0x00 0x33 0x00 0x25 0x00,0x43C8,ACK
0.102201500000000,568,DATA,0x090,0x8,0x18 0x00 0x00 0x00 0x00 0x00 0x93 0x00,0x7823,ACK
0.102324750000000,569,DATA,0x090,0x8,0x66 0xCC 0x66 0xCC 0x55 0xAA 0x55 0xAA,0x03E5,ACK
0.102439000000000,570,DATA,0x090,0x8,0x01 0x10 0x0E 0x00 0x0E 0x00 0x00 0x00,0x44DC,ACK
0.102568250000000,571,DATA,0x090,0x8,0x5A 0x00 0x00 0x00 0x32 0x00 0x00 0x00,0x29E0,ACK
0.102691500000000,572,DATA,0x090,0x6,0x6E 0x03 0x66 0xCC 0x66 0xCC,0x4DAE,ACK
0.103099750000000,573,DATA,0x090,0x8,0x55 0xAA 0x55 0xAA 0x01 0x10 0x0E 0x00,0x677F,ACK
0.103216000000000,574,DATA,0x090,0x8,0x0F 0x00 0x00 0x00 0x59 0x00 0x00 0x00,0x495A,ACK
0.103338250000000,575,DATA,0x090,0x6,0x2E 0x00 0x00 0x00 0x6F 0x03,0x04EA,ACK
0.103447375000000,576,DATA,0x090,0x4,0x66 0xCC 0x66 0xCC,0x5148,ACK
0.104811000000000,577,DATA,0x090,0x8,0x55 0xAA 0x55 0xAA 0x01 0x10 0x0E 0x00,0x677F,ACK
0.104927250000000,578,DATA,0x090,0x8,0x0E 0x00 0x00 0x00 0x59 0x00 0x00 0x00,0x1E6A,ACK
0.105050500000000,579,DATA,0x090,0x6,0x27 0x00 0x00 0x00 0x70 0x03,0x3667,ACK
0.105160625000000,580,DATA,0x090,0x4,0x66 0xCC 0x66 0xCC,0x5148,ACK
0.106434250000000,581,DATA,0x090,0x8,0x55 0xAA 0x55 0xAA 0x01 0x10 0x0E 0x00,0x677F,ACK
0.106550375000000,582,DATA,0x090,0x8,0x0B 0x00 0x00 0x00 0x58 0x00 0x00 0x00,0x45C9,ACK
0.106673625000000,583,DATA,0x090,0x6,0x25 0x00 0x00 0x00 0x71 0x03,0x4E19,ACK
0.106782875000000,584,DATA,0x090,0x4,0x66 0xCC 0x66 0xCC,0x5148,ACK
0.108117375000000,585,DATA,0x090,0x8,0x55 0xAA 0x55 0xAA 0x01 0x10 0x0E 0x00,0x677F,ACK
0.108233625000000,586,DATA,0x090,0x8,0x06 0x00 0x00 0x00 0x56 0x00 0x00 0x00,0x500D,ACK
0.108357875000000,587,DATA,0x090,0x6,0x25 0x00 0x00 0x00 0x72 0x03,0x47EA,ACK
0.108468125000000,588,DATA,0x090,0x4,0x66 0xCC 0x66 0xCC,0x5148,ACK
0.109798625000000,589,DATA,0x090,0x8,0x55 0xAA 0x55 0xAA 0x01 0x10 0x0E 0x00,0x677F,ACK
0.109914875000000,590,DATA,0x090,0x8,0xFD 0xFF 0xFF 0xFF 0x51 0x00 0x00 0x00,0x211C,ACK
0.110038125000000,591,DATA,0x090,0x6,0x28 0x00 0x00 0x00 0x73 0x03,0x51A9,ACK
0.110140375000000,592,DATA,0x118,0x8,0x55 0xAA 0x55 0xAA 0x04 0x10 0x06 0x00,0x7106,ACK
0.110257500000000,593,DATA,0x090,0x4,0x66 0xCC 0x66 0xCC,0x5148,ACK
0.110337750000000,594,DATA,0x118,0x6,0x15 0x00 0x83 0x00 0x0C 0x01,0x2558,ACK
0.110439000000000,595,DATA,0x090,0x8,0x55 0xAA 0x55 0xAA 0x02 0x10 0x78 0x00,0x113D,ACK
0.110556250000000,596,DATA,0x090,0x8,0x18 0x10 0xD9 0x5C 0xEF 0x2F 0xC3 0x3F,0x5A2A,ACK
0.110672500000000,597,DATA,0x090,0x8,0x2F 0xF5 0xA3 0x01 0xA4 0x0A 0xED 0x3F,0x194C,ACK
0.110789750000000,598,DATA,0x118,0x4,0x66 0xCC 0x66 0xCC,0x5CF6,ACK
0.110869875000000,599,DATA,0x090,0x8,0x96 0x83 0x0E 0x43 0x90 0x90 0x80 0x3B,0x5360,ACK
0.110985125000000,600,DATA,0x090,0x8,0x2E 0xD5 0xA1 0x3C 0x19 0x1C 0x82 0xBF,0x6C30,ACK
0.111101375000000,601,DATA,0x090,0x8,0xB6 0x25 0x72 0x3A 0x4D 0xC0 0x86 0x3C,0x0713,ACK
0.111222625000000,602,DATA,0x090,0x8,0x9E 0x34 0x05 0x3C 0xB5 0x56 0x74 0x43,0x720D,ACK
0.111337875000000,603,DATA,0x090,0x8,0x00 0x00 0x00 0x00 0x00 0x00 0x00 0x00,0x12C7,ACK
0.111463000000000,604,DATA,0x090,0x8,0x00 0x00 0x00 0x00 0x00 0x00 0x00 0x00,0x12C7,ACK
0.111595250000000,605,DATA,0x090,0x8,0x00 0x00 0x00 0x00 0x00 0x00 0x00 0x00,0x12C7,ACK
0.111720500000000,606,DATA,0x090,0x8,0x00 0x00 0x00 0x00 0x00 0x00 0x00 0x00,0x12C7,ACK
0.111845750000000,607,DATA,0x090,0x8,0x00 0x00 0x00 0x00 0x00 0x00 0x00 0x00,0x12C7,ACK
0.111978000000000,608,DATA,0x090,0x8,0x00 0x00 0x00 0x00 0x00 0x00 0x00 0x00,0x12C7,ACK
0.112103250000000,609,DATA,0x090,0x8,0x00 0x00 0x00 0x00 0xCB 0x00 0x9B 0x01,0x1260,ACK
0.112225500000000,610,DATA,0x090,0x8,0x6E 0x04 0x33 0x00 0x33 0x00 0x25 0x00,0x43C8,ACK
0.112350625000000,611,DATA,0x090,0x8,0x18 0x00 0x00 0x00 0x00 0x00 0x94 0x00,0x2FE3,ACK
0.112474875000000,612,DATA,0x090,0x8,0x66 0xCC 0x66 0xCC 0x55 0xAA 0x55 0xAA,0x03E5,ACK
0.112589125000000,613,DATA,0x090,0x8,0x01 0x10 0x0E 0x00 0xF9 0xFF 0xFF 0xFF,0x2BDD,ACK
0.112718375000000,614,DATA,0x090,0x8,0x4E 0x00 0x00 0x00 0x2B 0x00 0x00 0x00,0x3A34,ACK
0.112840625000000,615,DATA,0x090,0x6,0x74 0x03 0x66 0xCC 0x66 0xCC,0x2CFD,ACK
0.113110875000000,616,DATA,0x090,0x8,0x55 0xAA 0x55 0xAA 0x01 0x10 0x0E 0x00,0x677F,ACK
0.113227125000000,617,DATA,0x090,0x8,0xF5 0xFF 0xFF 0xFF 0x4B 0x00 0x00 0x00,0x6ED1,ACK
0.113348375000000,618,DATA,0x090,0x6,0x2E 0x00 0x00 0x00 0x75 0x03,0x06A7,ACK
0.113457500000000,619,DATA,0x090,0x4,0x66 0xCC 0x66 0xCC,0x5148,ACK
0.113537750000000,620,DATA,0x108,0x8,0x55 0xAA 0x55 0xAA 0x09 0x10 0xB8 0x00,0x5AD4,ACK
0.113653000000000,621,DATA,0x108,0x8,0x44 0x4A 0x49 0x01 0x18 0x42 0x18 0x42,0x2D17,ACK
0.113775250000000,622,DATA,0x108,0x8,0x18 0x42 0x18 0x42 0x00 0x00 0x00 0x00,0x6D74,ACK
0.113894500000000,623,DATA,0x108,0x8,0x00 0x00 0x64 0x00 0x00 0x00 0x00 0x00,0x2E47,ACK
0.114018750000000,624,DATA,0x108,0x8,0x17 0xFC 0xE9 0x03 0xE9 0x03 0x00 0x00,0x73CC,ACK
0.114147875000000,625,DATA,0x108,0x8,0xEB 0x01 0xE9 0x03 0x17 0xFC 0x17 0xFC,0x2B37,ACK
0.114265125000000,626,DATA,0x108,0x8,0xE9 0x03 0xE9 0x03 0x00 0x00 0x00 0x00,0x4FEE,ACK
0.114387375000000,627,DATA,0x108,0x8,0xF0 0x04 0x00 0x00 0x00 0x00 0x28 0x02,0x07C5,ACK
0.114519625000000,628,DATA,0x108,0x8,0x00 0x00 0x00 0x00 0x00 0x00 0xF3 0x8F,0x1ECC,ACK
0.114641875000000,629,DATA,0x108,0x8,0x00 0x00 0x00 0x00 0x00 0x00 0x00 0x00,0x6C70,ACK
0.114767125000000,630,DATA,0x108,0x8,0x00 0x00 0x00 0x00 0x00 0x00 0x00 0x00,0x6C70,ACK
0.114899375000000,631,DATA,0x090,0x8,0x55 0xAA 0x55 0xAA 0x01 0x10 0x0E 0x00,0x677F,ACK
0.115015500000000,632,DATA,0x090,0x8,0xF6 0xFF 0xFF 0xFF 0x4A 0x00 0x00 0x00,0x4CE0,ACK
0.115137750000000,633,DATA,0x090,0x8,0x2F 0x00 0x00 0x00 0x76 0x03 0x66 0xCC,0x3241,ACK
0.115268000000000,634,DATA,0x090,0x2,0x66 0xCC,0x1021,ACK
0.115333250000000,635,DATA,0x108,0x8,0x00 0x00 0x00 0x00 0x49 0x00 0x00 0x00,0x592B,ACK
0.115456500000000,636,DATA,0x108,0x8,0x00 0x00 0x00 0x00 0x00 0x00 0x00 0x80,0x4E63,ACK
0.115589750000000,637,DATA,0x108,0x8,0x00 0x40 0x0D 0xC4 0x64 0x00 0x00 0x00,0x5931,ACK
0.115710875000000,638,DATA,0x108,0x8,0x00 0x00 0x00 0x00 0x00 0x00 0x00 0x00,0x6C70,ACK
0.115836125000000,639,DATA,0x108,0x8,0x00 0x00 0x00 0x00 0x00 0x00 0x00 0x00,0x6C70,ACK
0.115970375000000,640,DATA,0x108,0x8,0x00 0x00 0x00 0x00 0x00 0x00 0x00 0x00,0x6C70,ACK
0.116095625000000,641,DATA,0x108,0x8,0x00 0x00 0x00 0x00 0x00 0x00 0x00 0x00,0x6C70,ACK
0.116220875000000,642,DATA,0x108,0x8,0xB5 0x30 0xB5 0x56 0x74 0x43 0xB0 0x57,0x10C1,ACK
0.116344125000000,643,DATA,0x108,0x8,0x75 0x43 0x00 0x00 0x00 0x00 0x00 0x00,0x149B,ACK
0.116466375000000,644,DATA,0x108,0x8,0x00 0x00 0x00 0x00 0x00 0x00 0x00 0x00,0x6C70,ACK
0.116591500000000,645,DATA,0x108,0x8,0x00 0x00 0x00 0x00 0xF0 0xBF 0xFF 0xFF,0x5C27,ACK
0.116723750000000,646,DATA,0x090,0x8,0x55 0xAA 0x55 0xAA 0x01 0x10 0x0E 0x00,0x677F,ACK
0.116840000000000,647,DATA,0x090,0x8,0xF8 0xFF 0xFF 0xFF 0x4A 0x00 0x00 0x00,0x11A4,ACK
0.116962250000000,648,DATA,0x090,0x8,0x31 0x00 0x00 0x00 0x77 0x03 0x66 0xCC,0x3851,ACK
0.117087500000000,649,DATA,0x090,0x2,0x66 0xCC,0x1021,ACK
0.117152750000000,650,DATA,0x108,0x8,0xFF 0xFF 0x00 0x00 0x00 0x00 0x00 0x00,0x5895,ACK
0.117276875000000,651,DATA,0x108,0x8,0x00 0x00 0x00 0x0A 0x78 0x78 0x00 0x00,0x38EE,ACK
0.117407125000000,652,DATA,0x108,0x4,0x66 0xCC 0x66 0xCC,0x680F,ACK
0.118104500000000,653,DATA,0x090,0x8,0x55 0xAA 0x55 0xAA 0x01 0x10 0x0E 0x00,0x677F,ACK
0.118220750000000,654,DATA,0x090,0x8,0xFE 0xFF 0xFF 0xFF 0x46 0x00 0x00 0x00,0x218F,ACK
0.118343000000000,655,DATA,0x090,0x6,0x33 0x00 0x00 0x00 0x78 0x03,0x5EDA,ACK
0.118454250000000,656,DATA,0x090,0x4,0x66 0xCC 0x66 0xCC,0x5148,ACK
0.119785750000000,657,DATA,0x090,0x8,0x55 0xAA 0x55 0xAA 0x01 0x10 0x0E 0x00,0x677F,ACK
0.119902000000000,658,DATA,0x090,0x8,0x02 0x00 0x00 0x00 0x44 0x00 0x00 0x00,0x1B24,ACK
0.120025250000000,659,DATA,0x090,0x6,0x34 0x00 0x00 0x00 0x79 0x03,0x4038,ACK
0.120148500000000,660,DATA,0x090,0x4,0x66 0xCC 0x66 0xCC,0x5148,ACK
0.120385750000000,661,DATA,0x090,0x8,0x55 0xAA 0x55 0xAA 0x02 0x10 0x78 0x00,0x113D,ACK
0.120502875000000,662,DATA,0x090,0x8,0x18 0x10 0xD9 0x5C 0xEF 0x2F 0xC3 0x3F,0x5A2A,ACK
0.120619125000000,663,DATA,0x090,0x8,0x2F 0xF5 0xA3 0x01 0xA4 0x0A 0xED 0x3F,0x194C,ACK
0.120743375000000,664,DATA,0x090,0x8,0x96 0x83 0x0E 0x43 0xB0 0x14 0x70 0x3B,0x6525,ACK
0.120858625000000,665,DATA,0x090,0x8,0xF6 0x9A 0xAD 0x3C 0xEA 0x09 0x82 0xBF,0x71EE,ACK
0.120973875000000,666,DATA,0x090,0x8,0x2C 0x0E 0xFB 0x39 0xA7 0x7C 0x6D 0x3C,0x590E,ACK
0.121097125000000,667,DATA,0x090,0x8,0x5A 0x37 0x02 0x3C 0x52 0x55 0x74 0x43,0x33A2,ACK
0.121210250000000,668,DATA,0x090,0x8,0x00 0x00 0x00 0x00 0x00 0x00 0x00 0x00,0x12C7,ACK
0.121335500000000,669,DATA,0x090,0x8,0x00 0x00 0x00 0x00 0x00 0x00 0x00 0x00,0x12C7,ACK
0.121467750000000,670,DATA,0x090,0x8,0x00 0x00 0x00 0x00 0x00 0x00 0x00 0x00,0x12C7,ACK
0.121593000000000,671,DATA,0x090,0x8,0x00 0x00 0x00 0x00 0x00 0x00 0x00 0x00,0x12C7,ACK
0.121718250000000,672,DATA,0x090,0x8,0x00 0x00 0x00 0x00 0x00 0x00 0x00 0x00,0x12C7,ACK
0.121850500000000,673,DATA,0x090,0x8,0x00 0x00 0x00 0x00 0x00 0x00 0x00 0x00,0x12C7,ACK
0.121975750000000,674,DATA,0x090,0x8,0x00 0x00 0x00 0x00 0xCB 0x00 0x9E 0x01,0x0875,ACK
0.122096875000000,675,DATA,0x090,0x8,0x74 0x04 0x33 0x00 0x33 0x00 0x25 0x00,0x454B,ACK
0.122222125000000,676,DATA,0x090,0x8,0x18 0x00 0x00 0x00 0x00 0x00 0x95 0x00,0x6BC5,ACK
0.122344375000000,677,DATA,0x090,0x8,0x66 0xCC 0x66 0xCC 0x55 0xAA 0x55 0xAA,0x03E5,ACK
0.122458625000000,678,DATA,0x090,0x8,0x01 0x10 0x0E 0x00 0x05 0x00 0x00 0x00,0x558D,ACK
0.122586875000000,679,DATA,0x090,0x8,0x40 0x00 0x00 0x00 0x34 0x00 0x00 0x00,0x6973,ACK
0.122710125000000,680,DATA,0x090,0x6,0x7A 0x03 0x66 0xCC 0x66 0xCC,0x5CEC,ACK
0.123104375000000,681,DATA,0x090,0x8,0x55 0xAA 0x55 0xAA 0x01 0x10 0x0E 0x00,0x677F,ACK
0.123220625000000,682,DATA,0x090,0x8,0x0A 0x00 0x00 0x00 0x3A 0x00 0x00 0x00,0x3A0E,ACK
0.123344875000000,683,DATA,0x090,0x6,0x2F 0x00 0x00 0x00 0x7B 0x03,0x7292,ACK
0.123456125000000,684,DATA,0x090,0x4,0x66 0xCC 0x66 0xCC,0x5148,ACK
0.124814625000000,685,DATA,0x090,0x8,0x55 0xAA 0x55 0xAA 0x01 0x10 0x0E 0x00,0x677F,ACK
0.124930875000000,686,DATA,0x090,0x8,0x0A 0x00 0x00 0x00 0x38 0x00 0x00 0x00,0x07FE,ACK
0.125057125000000,687,DATA,0x090,0x6,0x2B 0x00 0x00 0x00 0x7C 0x03,0x5DE2,ACK
0.125167250000000,688,DATA,0x090,0x4,0x66 0xCC 0x66 0xCC,0x5148,ACK
0.126455875000000,689,DATA,0x090,0x8,0x55 0xAA 0x55 0xAA 0x01 0x10 0x0E 0x00,0x677F,ACK
0.126572000000000,690,DATA,0x090,0x8,0x0B 0x00 0x00 0x00 0x35 0x00 0x00 0x00,0x078F,ACK
0.126695250000000,691,DATA,0x090,0x6,0x22 0x00 0x00 0x00 0x7D 0x03,0x3311,ACK
0.126805500000000,692,DATA,0x090,0x4,0x66 0xCC 0x66 0xCC,0x5148,ACK
0.128106000000000,693,DATA,0x090,0x8,0x55 0xAA 0x55 0xAA 0x01 0x10 0x0E 0x00,0x677F,ACK
0.128222250000000,694,DATA,0x090,0x8,0x0B 0x00 0x00 0x00 0x36 0x00 0x00 0x00,0x2487,ACK
0.128345500000000,695,DATA,0x090,0x6,0x1E 0x00 0x00 0x00 0x7E 0x03,0x0924,ACK
0.128455750000000,696,DATA,0x090,0x4,0x66 0xCC 0x66 0xCC,0x5148,ACK
0.129804250000000,697,DATA,0x090,0x8,0x55 0xAA 0x55 0xAA 0x01 0x10 0x0E 0x00,0x677F,ACK
0.129920500000000,698,DATA,0x090,0x8,0x0B 0x00 0x00 0x00 0x36 0x00 0x00 0x00,0x2487,ACK
0.130043625000000,699,DATA,0x090,0x6,0x1B 0x00 0x00 0x00 0x7F 0x03,0x2B9E,ACK
0.130146875000000,700,DATA,0x7F8,0x8,0x55 0xAA 0x55 0xAA 0x03 0x10 0x3A 0x00,0x57D0,ACK
0.130264125000000,701,DATA,0x090,0x4,0x66 0xCC 0x66 0xCC,0x5148,ACK
0.130344375000000,702,DATA,0x7F8,0x8,0x62 0xC6 0x62 0x20 0x74 0x86 0x1E 0x05,0x46FC,ACK
0.130460625000000,703,DATA,0x090,0x8,0x55 0xAA 0x55 0xAA 0x02 0x10 0x78 0x00,0x113D,ACK
0.130577750000000,704,DATA,0x090,0x8,0x18 0x10 0xD9 0x5C 0xEF 0x2F 0xC3 0x3F,0x5A2A,ACK
0.130694000000000,705,DATA,0x090,0x8,0x2F 0xF5 0xA3 0x01 0xA4 0x0A 0xED 0x3F,0x194C,ACK
0.130811250000000,706,DATA,0x7F8,0x8,0x15 0x60 0xFE 0x1E 0xB2 0x2C 0x02 0x00,0x2786,ACK
0.130930500000000,707,DATA,0x090,0x8,0x96 0x83 0x0E 0x43 0xC8 0xBB 0x62 0x3B,0x1C42,ACK
0.131043750000000,708,DATA,0x090,0x8,0x5E 0xE6 0xC0 0x3C 0xCE 0x87 0x81 0xBF,0x1A72,ACK
0.131158875000000,709,DATA,0x090,0x8,0x0C 0xD0 0xBD 0x39 0xE7 0xF3 0x3F 0x3C,0x7BA9,ACK
0.131274125000000,710,DATA,0x7F8,0x8,0x94 0x38 0x2C 0x00 0xDB 0x44 0x1F 0x00,0x6BD7,ACK
0.131393500000000,711,DATA,0x090,0x8,0x99 0x90 0xF8 0x3B 0x52 0x55 0x74 0x43,0x254E,ACK
0.131507625000000,712,DATA,0x090,0x8,0x00 0x00 0x00 0x00 0x00 0x00 0x00 0x00,0x12C7,ACK
0.131632875000000,713,DATA,0x090,0x8,0x00 0x00 0x00 0x00 0x00 0x00 0x00 0x00,0x12C7,ACK
0.131758125000000,714,DATA,0x7F8,0x8,0x00 0x00 0x00 0x00 0x00 0x00 0x00 0x00,0x1B02,ACK
0.131885375000000,715,DATA,0x090,0x8,0x00 0x00 0x00 0x00 0x00 0x00 0x00 0x00,0x12C7,ACK
0.132010500000000,716,DATA,0x090,0x8,0x00 0x00 0x00 0x00 0x00 0x00 0x00 0x00,0x12C7,ACK
0.132135750000000,717,DATA,0x090,0x8,0x00 0x00 0x00 0x00 0x00 0x00 0x00 0x00,0x12C7,ACK
0.132261000000000,718,DATA,0x7F8,0x8,0x00 0x00 0x00 0x00 0x00 0x00 0x00 0x00,0x1B02,ACK
0.132388125000000,719,DATA,0x090,0x8,0x00 0x00 0x00 0x00 0x00 0x00 0x00 0x00,0x12C7,ACK
0.132513250000000,720,DATA,0x090,0x8,0x00 0x00 0x00 0x00 0xCB 0x00 0x9E 0x01,0x0875,ACK
0.132634500000000,721,DATA,0x090,0x8,0x74 0x04 0x33 0x00 0x33 0x00 0x25 0x00,0x454B,ACK
0.132752750000000,722,DATA,0x7F8,0x8,0x0F 0x27 0x0F 0x27 0x0F 0x27 0x0F 0x27,0x312E,ACK
0.132866875000000,723,DATA,0x090,0x8,0x18 0x00 0x00 0x00 0x00 0x00 0x96 0x00,0x6236,ACK
0.132989000000000,724,DATA,0x090,0x8,0x66 0xCC 0x66 0xCC 0x55 0xAA 0x55 0xAA,0x03E5,ACK
0.133103250000000,725,DATA,0x090,0x8,0x01 0x10 0x0E 0x00 0x09 0x00 0x00 0x00,0x1C34,ACK
0.133225500000000,726,DATA,0x7F8,0x8,0x00 0x00 0x00 0x00 0x5C 0x00 0x00 0x00,0x2FF3,ACK
0.133351625000000,727,DATA,0x090,0x8,0x39 0x00 0x00 0x00 0x15 0x00 0x00 0x00,0x7FE6,ACK
0.133475750000000,728,DATA,0x090,0x8,0x80 0x03 0x66 0xCC 0x66 0xCC 0x55 0xAA,0x232A,ACK
0.133590000000000,729,DATA,0x090,0x8,0x55 0xAA 0x01 0x10 0x0E 0x00 0x05 0x00,0x3C63,ACK
0.133707125000000,730,DATA,0x7F8,0x8,0x02 0x00 0x66 0xCC 0x66 0xCC 0x55 0xAA,0x0BB3,ACK
0.133823250000000,731,DATA,0x090,0x8,0x00 0x00 0x3A 0x00 0x00 0x00 0x13 0x00,0x5A7D,ACK
0.133946375000000,732,DATA,0x090,0x8,0x00 0x00 0x81 0x03 0x66 0xCC 0x66 0xCC,0x6567,ACK
0.134063625000000,733,DATA,0x108,0x8,0x55 0xAA 0x55 0xAA 0x09 0x10 0xB8 0x00,0x5AD4,ACK
0.134178875000000,734,DATA,0x7F8,0x8,0x55 0xAA 0x21 0x09 0x0C 0x00 0x00 0x00,0x18BA,ACK
0.134297000000000,735,DATA,0x108,0x8,0x44 0x4A 0x49 0x01 0x18 0x42 0x18 0x42,0x2D17,ACK
0.134410125000000,736,DATA,0x108,0x8,0x18 0x42 0x18 0x42 0x00 0x00 0x00 0x00,0x6D74,ACK
0.134529375000000,737,DATA,0x108,0x8,0x00 0x00 0x64 0x00 0x00 0x00 0x00 0x00,0x2E47,ACK
0.134653625000000,738,DATA,0x7F8,0x8,0x00 0x00 0x06 0x01 0x00 0x06 0x02 0x01,0x5E9D,ACK
0.134775750000000,739,DATA,0x108,0x8,0x17 0xFC 0xE9 0x03 0xE9 0x03 0x00 0x00,0x73CC,ACK
0.134895875000000,740,DATA,0x108,0x8,0xEB 0x01 0xE9 0x03 0x17 0xFC 0x17 0xFC,0x2B37,ACK
0.135013125000000,741,DATA,0x108,0x8,0xE9 0x03 0xE9 0x03 0x00 0x00 0x00 0x00,0x4FEE,ACK
0.135135375000000,742,DATA,0x7F8,0x6,0x01 0x06 0x66 0xCC 0x66 0xCC,0x0F25,ACK
0.135236500000000,743,DATA,0x090,0x8,0x55 0xAA 0x55 0xAA 0x01 0x10 0x0E 0x00,0x677F,ACK
0.135352625000000,744,DATA,0x090,0x8,0xFC 0xFF 0xFF 0xFF 0x3D 0x00 0x00 0x00,0x2A92,ACK
0.135474875000000,745,DATA,0x090,0x8,0x0E 0x00 0x00 0x00 0x82 0x03 0x66 0xCC,0x0A11,ACK
0.135602125000000,746,DATA,0x090,0x2,0x66 0xCC,0x1021,ACK
0.135667375000000,747,DATA,0x108,0x8,0xF0 0x04 0x00 0x00 0x00 0x00 0x27 0x02,0x29FA,ACK
0.135789625000000,748,DATA,0x108,0x8,0x00 0x00 0x00 0x00 0x00 0x00 0xF3 0x8F,0x1ECC,ACK
0.135920875000000,749,DATA,0x108,0x8,0x00 0x00 0x00 0x00 0x00 0x00 0x00 0x00,0x6C70,ACK
0.136046000000000,750,DATA,0x108,0x8,0x00 0x00 0x00 0x00 0x00 0x00 0x00 0x00,0x6C70,ACK
0.136171250000000,751,DATA,0x108,0x8,0x00 0x00 0x00 0x00 0x4A 0x00 0x00 0x00,0x7A23,ACK
0.136305500000000,752,DATA,0x108,0x8,0x00 0x00 0x00 0x00 0x00 0x00 0x00 0x80,0x4E63,ACK
0.136429750000000,753,DATA,0x108,0x8,0x00 0x40 0x0D 0xC4 0x64 0x00 0x00 0x00,0x5931,ACK
0.136551000000000,754,DATA,0x108,0x8,0x00 0x00 0x00 0x00 0x00 0x00 0x00 0x00,0x6C70,ACK
0.136683250000000,755,DATA,0x090,0x8,0x55 0xAA 0x55 0xAA 0x01 0x10 0x0E 0x00,0x677F,ACK
0.136799500000000,756,DATA,0x090,0x8,0xF8 0xFF 0xFF 0xFF 0x3D 0x00 0x00 0x00,0x38F9,ACK
0.136922625000000,757,DATA,0x090,0x8,0x0D 0x00 0x00 0x00 0x83 0x03 0x66 0xCC,0x2820,ACK
0.137049875000000,758,DATA,0x090,0x2,0x66 0xCC,0x1021,ACK
0.137115125000000,759,DATA,0x108,0x8,0x00 0x00 0x00 0x00 0x00 0x00 0x00 0x00,0x6C70,ACK
0.137240375000000,760,DATA,0x108,0x8,0x00 0x00 0x00 0x00 0x00 0x00 0x00 0x00,0x6C70,ACK
0.137374625000000,761,DATA,0x108,0x8,0x00 0x00 0x00 0x00 0x00 0x00 0x00 0x00,0x6C70,ACK
0.137499875000000,762,DATA,0x108,0x8,0xB3 0x30 0x52 0x55 0x74 0x43 0xB0 0x57,0x3D45,ACK
0.137614000000000,763,DATA,0x108,0x8,0x75 0x43 0x00 0x00 0x00 0x00 0x00 0x00,0x149B,ACK
0.137752250000000,764,DATA,0x108,0x8,0x00 0x00 0x00 0x00 0x00 0x00 0x00 0x00,0x6C70,ACK
0.137877500000000,765,DATA,0x108,0x8,0x00 0x00 0x00 0x00 0xF0 0xBF 0xFF 0xFF,0x5C27,ACK
0.138002750000000,766,DATA,0x108,0x8,0xFF 0xFF 0x00 0x00 0x00 0x00 0x00 0x00,0x5895,ACK
0.138136000000000,767,DATA,0x108,0x8,0x00 0x00 0x00 0x0A 0x78 0x78 0x00 0x00,0x38EE,ACK
0.138258250000000,768,DATA,0x108,0x4,0x66 0xCC 0x66 0xCC,0x680F,ACK
0.138339375000000,769,DATA,0x090,0x8,0x55 0xAA 0x55 0xAA 0x01 0x10 0x0E 0x00,0x677F,ACK
0.138462625000000,770,DATA,0x090,0x8,0xF6 0xFF 0xFF 0xFF 0x3E 0x00 0x00 0x00,0x46B5,ACK
0.138584875000000,771,DATA,0x090,0x8,0x0D 0x00 0x00 0x00 0x84 0x03 0x66 0xCC,0x70C8,ACK
0.138703125000000,772,DATA,0x090,0x2,0x66 0xCC,0x1021,ACK
0.139775625000000,773,DATA,0x090,0x8,0x55 0xAA 0x55 0xAA 0x01 0x10 0x0E 0x00,0x677F,ACK
0.139891875000000,774,DATA,0x090,0x8,0xF6 0xFF 0xFF 0xFF 0x3F 0x00 0x00 0x00,0x584D,ACK
0.140013000000000,775,DATA,0x090,0x6,0x12 0x00 0x00 0x00 0x85 0x03,0x4BC7,ACK
0.140154250000000,776,DATA,0x090,0x4,0x66 0xCC 0x66 0xCC,0x5148,ACK
0.140391500000000,777,DATA,0x090,0x8,0x55 0xAA 0x55 0xAA 0x02 0x10 0x78 0x00,0x113D,ACK
0.140508750000000,778,DATA,0x090,0x8,0x18 0x10 0xD9 0x5C 0xEF 0x2F 0xC3 0x3F,0x5A2A,ACK
0.140625000000000,779,DATA,0x090,0x8,0x2F 0xF5 0xA3 0x01 0xA4 0x0A 0xED 0x3F,0x194C,ACK
0.140749250000000,780,DATA,0x090,0x8,0x96 0x83 0x0E 0x43 0x08 0xDD 0x40 0x3B,0x7DE5,ACK
0.140864500000000,781,DATA,0x090,0x8,0xBE 0xA8 0xC4 0x3C 0x23 0x6D 0x81 0xBF,0x4BC0,ACK
0.140980750000000,782,DATA,0x090,0x8,0xC6 0xB6 0x1E 0x3A 0x0B 0xA5 0x2A 0x3C,0x64BF,ACK
0.141101875000000,783,DATA,0x090,0x8,0x47 0x7A 0xB0 0x3B 0x39 0x6E 0x74 0x43,0x4BFF,ACK
0.141217125000000,784,DATA,0x090,0x8,0x00 0x00 0x00 0x00 0x00 0x00 0x00 0x00,0x12C7,ACK
0.141342375000000,785,DATA,0x090,0x8,0x00 0x00 0x00 0x00 0x00 0x00 0x00 0x00,0x12C7,ACK
0.141474625000000,786,DATA,0x090,0x8,0x00 0x00 0x00 0x00 0x00 0x00 0x00 0x00,0x12C7,ACK
0.141599875000000,787,DATA,0x090,0x8,0x00 0x00 0x00 0x00 0x00 0x00 0x00 0x00,0x12C7,ACK
0.141725125000000,788,DATA,0x090,0x8,0x00 0x00 0x00 0x00 0x00 0x00 0x00 0x00,0x12C7,ACK
0.141857375000000,789,DATA,0x090,0x8,0x00 0x00 0x00 0x00 0x00 0x00 0x00 0x00,0x12C7,ACK
0.141982500000000,790,DATA,0x090,0x8,0x00 0x00 0x00 0x00 0xCB 0x00 0x9E 0x01,0x0875,ACK
0.142103750000000,791,DATA,0x090,0x8,0x74 0x04 0x33 0x00 0x33 0x00 0x25 0x00,0x454B,ACK
0.142229000000000,792,DATA,0x090,0x8,0x08 0x00 0x00 0x00 0x00 0x00 0x97 0x00,0x6FBC,ACK
0.142352250000000,793,DATA,0x090,0x8,0x66 0xCC 0x66 0xCC 0x55 0xAA 0x55 0xAA,0x03E5,ACK
0.142466500000000,794,DATA,0x090,0x8,0x01 0x10 0x0E 0x00 0xF6 0xFF 0xFF 0xFF,0x416C,ACK
0.142595750000000,795,DATA,0x090,0x8,0x40 0x00 0x00 0x00 0x18 0x00 0x00 0x00,0x2C37,ACK
0.142718875000000,796,DATA,0x090,0x6,0x86 0x03 0x66 0xCC 0x66 0xCC,0x1A24,ACK
0.143116250000000,797,DATA,0x090,0x8,0x55 0xAA 0x55 0xAA 0x01 0x10 0x0E 0x00,0x677F,ACK
0.143232500000000,798,DATA,0x090,0x8,0xF3 0xFF 0xFF 0xFF 0x45 0x00 0x00 0x00,0x630A,ACK
0.143353750000000,799,DATA,0x090,0x6,0x25 0x00 0x00 0x00 0x87 0x03,0x2359,ACK
0.143461875000000,800,DATA,0x090,0x4,0x66 0xCC 0x66 0xCC,0x5148,ACK
0.144778500000000,801,DATA,0x090,0x8,0x55 0xAA 0x55 0xAA 0x01 0x10 0x0E 0x00,0x677F,ACK
0.144894625000000,802,DATA,0x090,0x8,0xF1 0xFF 0xFF 0xFF 0x4A 0x00 0x00 0x00,0x6242,ACK
0.145016875000000,803,DATA,0x090,0x6,0x2B 0x00 0x00 0x00 0x88 0x03,0x7D77,ACK
0.145156125000000,804,DATA,0x090,0x4,0x66 0xCC 0x66 0xCC,0x5148,ACK
0.146458625000000,805,DATA,0x090,0x8,0x55 0xAA 0x55 0xAA 0x01 0x10 0x0E 0x00,0x677F,ACK
0.146574875000000,806,DATA,0x090,0x8,0xEF 0xFF 0xFF 0xFF 0x50 0x00 0x00 0x00,0x1DB1,ACK
0.146698125000000,807,DATA,0x090,0x6,0x2F 0x00 0x00 0x00 0x89 0x03,0x41E1,ACK
0.146809375000000,808,DATA,0x090,0x4,0x66 0xCC 0x66 0xCC,0x5148,ACK
0.148126875000000,809,DATA,0x090,0x8,0x55 0xAA 0x55 0xAA 0x01 0x10 0x0E 0x00,0x677F,ACK
0.148243125000000,810,DATA,0x090,0x8,0xED 0xFF 0xFF 0xFF 0x5D 0x00 0x00 0x00,0x2109,ACK
0.148365375000000,811,DATA,0x090,0x6,0x33 0x00 0x00 0x00 0x8A 0x03,0x6DA9,ACK
0.148473625000000,812,DATA,0x090,0x4,0x66 0xCC 0x66 0xCC,0x5148,ACK
0.149778125000000,813,DATA,0x090,0x8,0x55 0xAA 0x55 0xAA 0x01 0x10 0x0E 0x00,0x677F,ACK
0.149894375000000,814,DATA,0x090,0x8,0xED 0xFF 0xFF 0xFF 0x62 0x00 0x00 0x00,0x23F7,ACK
0.150017625000000,815,DATA,0x090,0x6,0x35 0x00 0x00 0x00 0x8B 0x03,0x6D67,ACK
0.150118875000000,816,DATA,0x118,0x8,0x55 0xAA 0x55 0xAA 0x04 0x10 0x06 0x00,0x7106,ACK
0.150236000000000,817,DATA,0x090,0x4,0x66 0xCC 0x66 0xCC,0x5148,ACK
0.150316250000000,818,DATA,0x118,0x6,0x18 0x00 0x82 0x00 0x0F 0x01,0x6036,ACK
0.150419500000000,819,DATA,0x090,0x8,0x55 0xAA 0x55 0xAA 0x02 0x10 0x78 0x00,0x113D,ACK
0.150536750000000,820,DATA,0x090,0x8,0x18 0x10 0xD9 0x5C 0xEF 0x2F 0xC3 0x3F,0x5A2A,ACK
0.150652875000000,821,DATA,0x090,0x8,0x2F 0xF5 0xA3 0x01 0xA4 0x0A 0xED 0x3F,0x194C,ACK
0.150770250000000,822,DATA,0x118,0x4,0x66 0xCC 0x66 0xCC,0x5CF6,ACK
0.150850375000000,823,DATA,0x090,0x8,0x96 0x83 0x0E 0x43 0xF0 0xFF 0xED 0x3A,0x5924,ACK
0.150966625000000,824,DATA,0x090,0x8,0xBC 0x97 0xB6 0x3C 0x19 0xAC 0x81 0xBF,0x3238,ACK
0.151081875000000,825,DATA,0x090,0x8,0x45 0x25 0xA1 0xBA 0x47 0xC8 0x41 0x3C,0x47A6,ACK
0.151223125000000,826,DATA,0x090,0x8,0x5B 0xB2 0xA4 0x3B 0x33 0x72 0x74 0x43,0x0F38,ACK
0.151335250000000,827,DATA,0x090,0x8,0x00 0x00 0x00 0x00 0x00 0x00 0x00 0x00,0x12C7,ACK
0.151460500000000,828,DATA,0x090,0x8,0x00 0x00 0x00 0x00 0x00 0x00 0x00 0x00,0x12C7,ACK
0.151593750000000,829,DATA,0x090,0x8,0x00 0x00 0x00 0x00 0x00 0x00 0x00 0x00,0x12C7,ACK
0.151719000000000,830,DATA,0x090,0x8,0x00 0x00 0x00 0x00 0x00 0x00 0x00 0x00,0x12C7,ACK
0.151844250000000,831,DATA,0x090,0x8,0x00 0x00 0x00 0x00 0x00 0x00 0x00 0x00,0x12C7,ACK
0.151976500000000,832,DATA,0x090,0x8,0x00 0x00 0x00 0x00 0x00 0x00 0x00 0x00,0x12C7,ACK
0.152101750000000,833,DATA,0x090,0x8,0x00 0x00 0x00 0x00 0xCB 0x00 0x9E 0x01,0x0875,ACK
0.152222875000000,834,DATA,0x090,0x8,0x74 0x04 0x33 0x00 0x33 0x00 0x25 0x00,0x454B,ACK
0.152348125000000,835,DATA,0x090,0x8,0x08 0x00 0x00 0x00 0x00 0x00 0x98 0x00,0x4183,ACK
0.152473375000000,836,DATA,0x090,0x8,0x66 0xCC 0x66 0xCC 0x55 0xAA 0x55 0xAA,0x03E5,ACK
0.152587625000000,837,DATA,0x090,0x8,0x01 0x10 0x0E 0x00 0xEE 0xFF 0xFF 0xFF,0x1787,ACK
0.152714875000000,838,DATA,0x090,0x8,0x6A 0x00 0x00 0x00 0x3A 0x00 0x00 0x00,0x04D4,ACK
0.152837125000000,839,DATA,0x090,0x6,0x8C 0x03 0x66 0xCC 0x66 0xCC,0x1285,ACK
0.153129375000000,840,DATA,0x090,0x8,0x55 0xAA 0x55 0xAA 0x01 0x10 0x0E 0x00,0x677F,ACK
0.153245625000000,841,DATA,0x090,0x8,0xEE 0xFF 0xFF 0xFF 0x6E 0x00 0x00 0x00,0x5687,ACK
0.153366875000000,842,DATA,0x090,0x6,0x3D 0x00 0x00 0x00 0x8D 0x03,0x4A78,ACK
0.153479000000000,843,DATA,0x090,0x4,0x66 0xCC 0x66 0xCC,0x5148,ACK
0.153559250000000,844,DATA,0x108,0x8,0x55 0xAA 0x55 0xAA 0x09 0x10 0xB8 0x00,0x5AD4,ACK
0.153674500000000,845,DATA,0x108,0x8,0x44 0x4A 0x49 0x01 0x18 0x42 0x18 0x42,0x2D17,ACK
0.153796750000000,846,DATA,0x108,0x8,0x18 0x42 0x18 0x42 0x00 0x00 0x00 0x00,0x6D74,ACK
0.153916000000000,847,DATA,0x108,0x8,0x00 0x00 0x64 0x00 0x00 0x00 0x00 0x00,0x2E47,ACK
0.154040125000000,848,DATA,0x108,0x8,0x17 0xFC 0xE9 0x03 0xE9 0x03 0x00 0x00,0x73CC,ACK
0.154169375000000,849,DATA,0x108,0x8,0xEB 0x01 0xE9 0x03 0x17 0xFC 0x17 0xFC,0x2B37,ACK
0.154286625000000,850,DATA,0x108,0x8,0xE9 0x03 0xE9 0x03 0x00 0x00 0x00 0x00,0x4FEE,ACK
0.154408875000000,851,DATA,0x108,0x8,0xF0 0x04 0x00 0x00 0x00 0x00 0x27 0x02,0x29FA,ACK
0.154545125000000,852,DATA,0x108,0x8,0x00 0x00 0x00 0x00 0x00 0x00 0xF3 0x8F,0x1ECC,ACK
0.154667375000000,853,DATA,0x108,0x8,0x00 0x00 0x00 0x00 0x00 0x00 0x00 0x00,0x6C70,ACK
0.154792625000000,854,DATA,0x108,0x8,0x00 0x00 0x00 0x00 0x00 0x00 0x00 0x00,0x6C70,ACK
0.154924750000000,855,DATA,0x090,0x8,0x55 0xAA 0x55 0xAA 0x01 0x10 0x0E 0x00,0x677F,ACK
0.155041000000000,856,DATA,0x090,0x8,0xF0 0xFF 0xFF 0xFF 0x71 0x00 0x00 0x00,0x4C6C,ACK
0.155161250000000,857,DATA,0x090,0x8,0x3E 0x00 0x00 0x00 0x8E 0x03 0x66 0xCC,0x5CC5,ACK
0.155287500000000,858,DATA,0x090,0x2,0x66 0xCC,0x1021,ACK
0.155352750000000,859,DATA,0x108,0x8,0x00 0x00 0x00 0x00 0x4B 0x00 0x00 0x00,0x64DB,ACK
0.155476000000000,860,DATA,0x108,0x8,0x00 0x00 0x00 0x00 0x00 0x00 0x00 0x80,0x4E63,ACK
0.155609125000000,861,DATA,0x108,0x8,0x00 0x40 0x0D 0xC4 0x64 0x00 0x00 0x00,0x5931,ACK
0.155730375000000,862,DATA,0x108,0x8,0x00 0x00 0x00 0x00 0x00 0x00 0x00 0x00,0x6C70,ACK
0.155855625000000,863,DATA,0x108,0x8,0x00 0x00 0x00 0x00 0x00 0x00 0x00 0x00,0x6C70,ACK
0.155989875000000,864,DATA,0x108,0x8,0x00 0x00 0x00 0x00 0x00 0x00 0x00 0x00,0x6C70,ACK
0.156115125000000,865,DATA,0x108,0x8,0x00 0x00 0x00 0x00 0x00 0x00 0x00 0x00,0x6C70,ACK
0.156240375000000,866,DATA,0x108,0x8,0xB3 0x30 0x33 0x72 0x74 0x43 0xB0 0x57,0x01D4,ACK
0.156364625000000,867,DATA,0x108,0x8,0x75 0x43 0x00 0x00 0x00 0x00 0x00 0x00,0x149B,ACK
0.156486750000000,868,DATA,0x108,0x8,0x00 0x00 0x00 0x00 0x00 0x00 0x00 0x00,0x6C70,ACK
0.156612000000000,869,DATA,0x108,0x8,0x00 0x00 0x00 0x00 0xF0 0xBF 0xFF 0xFF,0x5C27,ACK
0.156744250000000,870,DATA,0x090,0x8,0x55 0xAA 0x55 0xAA 0x01 0x10 0x0E 0x00,0x677F,ACK
0.156860500000000,871,DATA,0x090,0x8,0xF7 0xFF 0xFF 0xFF 0x79 0x00 0x00 0x00,0x5097,ACK
0.156981750000000,872,DATA,0x090,0x8,0x3B 0x00 0x00 0x00 0x8F 0x03 0x66 0xCC,0x0766,ACK
0.157107000000000,873,DATA,0x090,0x2,0x66 0xCC,0x1021,ACK
0.157172125000000,874,DATA,0x108,0x8,0xFF 0xFF 0x00 0x00 0x00 0x00 0x00 0x00,0x5895,ACK
0.157296375000000,875,DATA,0x108,0x8,0x00 0x00 0x00 0x0A 0x78 0x78 0x00 0x00,0x38EE,ACK
0.157426625000000,876,DATA,0x108,0x4,0x66 0xCC 0x66 0xCC,0x680F,ACK
0.158114000000000,877,DATA,0x090,0x8,0x55 0xAA 0x55 0xAA 0x01 0x10 0x0E 0x00,0x677F,ACK
0.158230250000000,878,DATA,0x090,0x8,0xFC 0xFF 0xFF 0xFF 0x7B 0x00 0x00 0x00,0x7578,ACK
0.158351500000000,879,DATA,0x090,0x6,0x37 0x00 0x00 0x00 0x90 0x03,0x1754,ACK
0.158460750000000,880,DATA,0x090,0x4,0x66 0xCC 0x66 0xCC,0x5148,ACK
0.159780250000000,881,DATA,0x090,0x8,0x55 0xAA 0x55 0xAA 0x01 0x10 0x0E 0x00,0x677F,ACK
0.159896500000000,882,DATA,0x090,0x8,0x04 0x00 0x00 0x00 0x77 0x00 0x00 0x00,0x29F1,ACK
0.160020750000000,883,DATA,0x090,0x6,0x2E 0x00 0x00 0x00 0x91 0x03,0x1055,ACK
0.160158875000000,884,DATA,0x090,0x4,0x66 0xCC 0x66 0xCC,0x5148,ACK
0.160367125000000,885,DATA,0x090,0x8,0x55 0xAA 0x55 0xAA 0x02 0x10 0x78 0x00,0x113D,ACK
0.160484375000000,886,DATA,0x090,0x8,0x18 0x10 0xD9 0x5C 0xEF 0x2F 0xC3 0x3F,0x5A2A,ACK
0.160600625000000,887,DATA,0x090,0x8,0x2F 0xF5 0xA3 0x01 0xA4 0x0A 0xED 0x3F,0x194C,ACK
0.160724875000000,888,DATA,0x090,0x8,0x96 0x83 0x0E 0x43 0xC0 0xDE 0x9D 0x39,0x0F3E,ACK
0.160840125000000,889,DATA,0x090,0x8,0xF4 0x23 0xAE 0x3C 0x38 0xBA 0x81 0xBF,0x4AF0,ACK
0.160954375000000,890,DATA,0x090,0x8,0xFE 0x38 0x16 0xBB 0x47 0xEC 0x86 0x3C,0x34DF,ACK
0.161077500000000,891,DATA,0x090,0x8,0x82 0xED 0x06 0x3C 0x88 0x84 0x74 0x43,0x7315,ACK
0.161192750000000,892,DATA,0x090,0x8,0x00 0x00 0x00 0x00 0x00 0x00 0x00 0x00,0x12C7,ACK
0.161318000000000,893,DATA,0x090,0x8,0x00 0x00 0x00 0x00 0x00 0x00 0x00 0x00,0x12C7,ACK
0.161450250000000,894,DATA,0x090,0x8,0x00 0x00 0x00 0x00 0x00 0x00 0x00 0x00,0x12C7,ACK
0.161575500000000,895,DATA,0x090,0x8,0x00 0x00 0x00 0x00 0x00 0x00 0x00 0x00,0x12C7,ACK
0.161700750000000,896,DATA,0x090,0x8,0x00 0x00 0x00 0x00 0x00 0x00 0x00 0x00,0x12C7,ACK
0.161833000000000,897,DATA,0x090,0x8,0x00 0x00 0x00 0x00 0x00 0x00 0x00 0x00,0x12C7,ACK
0.161958125000000,898,DATA,0x090,0x8,0x00 0x00 0x00 0x00 0xD5 0x00 0x9B 0x01,0x029B,ACK
0.162080375000000,899,DATA,0x090,0x8,0x7E 0x04 0x33 0x00 0x33 0x00 0x25 0x00,0x0A64,ACK
0.162207625000000,900,DATA,0x090,0x8,0x08 0x00 0x00 0x00 0x00 0x00 0x99 0x00,0x05A5,ACK
0.162330875000000,901,DATA,0x090,0x8,0x66 0xCC 0x66 0xCC 0x55 0xAA 0x55 0xAA,0x03E5,ACK
0.162445125000000,902,DATA,0x090,0x8,0x01 0x10 0x0E 0x00 0x07 0x00 0x00 0x00,0x687D,ACK
0.162574375000000,903,DATA,0x090,0x8,0x71 0x00 0x00 0x00 0x2B 0x00 0x00 0x00,0x2F2D,ACK
0.162696625000000,904,DATA,0x090,0x6,0x92 0x03 0x66 0xCC 0x66 0xCC,0x0B66,ACK
0.163130875000000,905,DATA,0x090,0x8,0x55 0xAA 0x55 0xAA 0x01 0x10 0x0E 0x00,0x677F,ACK
0.163247125000000,906,DATA,0x090,0x8,0x09 0x00 0x00 0x00 0x69 0x00 0x00 0x00,0x5887,ACK
0.163369375000000,907,DATA,0x090,0x6,0x29 0x00 0x00 0x00 0x93 0x03,0x0744,ACK
0.163477500000000,908,DATA,0x090,0x4,0x66 0xCC 0x66 0xCC,0x5148,ACK
0.164784125000000,909,DATA,0x090,0x8,0x55 0xAA 0x55 0xAA 0x01 0x10 0x0E 0x00,0x677F,ACK
0.164900375000000,910,DATA,0x090,0x8,0x0D 0x00 0x00 0x00 0x5A 0x00 0x00 0x00,0x01AB,ACK
0.165024500000000,911,DATA,0x090,0x6,0x2A 0x00 0x00 0x00 0x94 0x03,0x72F0,ACK
0.165161750000000,912,DATA,0x090,0x4,0x66 0xCC 0x66 0xCC,0x5148,ACK
0.166465375000000,913,DATA,0x090,0x8,0x55 0xAA 0x55 0xAA 0x01 0x10 0x0E 0x00,0x677F,ACK
0.166581500000000,914,DATA,0x090,0x8,0x0E 0x00 0x00 0x00 0x53 0x00 0x00 0x00,0x11C3,ACK
0.166704750000000,915,DATA,0x090,0x6,0x2A 0x00 0x00 0x00 0x95 0x03,0x36D6,ACK
0.166814000000000,916,DATA,0x090,0x4,0x66 0xCC 0x66 0xCC,0x5148,ACK
0.168116500000000,917,DATA,0x090,0x8,0x55 0xAA 0x55 0xAA 0x01 0x10 0x0E 0x00,0x677F,ACK
0.168232750000000,918,DATA,0x090,0x8,0x11 0x00 0x00 0x00 0x49 0x00 0x00 0x00,0x3900,ACK
0.168357000000000,919,DATA,0x090,0x6,0x2A 0x00 0x00 0x00 0x96 0x03,0x3F25,ACK
0.168467250000000,920,DATA,0x090,0x4,0x66 0xCC 0x66 0xCC,0x5148,ACK
0.169763750000000,921,DATA,0x7F8,0x8,0x55 0xAA 0x55 0xAA 0x26 0x09 0x23 0x00,0x75E1,ACK
0.169878875000000,922,DATA,0x090,0x8,0x55 0xAA 0x55 0xAA 0x01 0x10 0x0E 0x00,0x677F,ACK
0.169995125000000,923,DATA,0x090,0x8,0x11 0x00 0x00 0x00 0x44 0x00 0x00 0x00,0x6E41,ACK
0.170119375000000,924,DATA,0x090,0x6,0x29 0x00 0x00 0x00 0x97 0x03,0x5977,ACK
0.170220625000000,925,DATA,0x7F8,0x8,0x50 0x14 0x18 0x15 0x28 0x14 0x6A 0x30,0x35B4,ACK
0.170338875000000,926,DATA,0x090,0x4,0x66 0xCC 0x66 0xCC,0x5148,ACK
0.170419000000000,927,DATA,0x090,0x8,0x55 0xAA 0x55 0xAA 0x02 0x10 0x78 0x00,0x113D,ACK
0.170536250000000,928,DATA,0x090,0x8,0x18 0x10 0xD9 0x5C 0xEF 0x2F 0xC3 0x3F,0x5A2A,ACK
0.170652500000000,929,DATA,0x118,0x8,0x55 0xAA 0x55 0xAA 0x04 0x10 0x06 0x00,0x7106,ACK
0.170769750000000,930,DATA,0x090,0x8,0x2F 0xF5 0xA3 0x01 0xA4 0x0A 0xED 0x3F,0x194C,ACK
0.170887000000000,931,DATA,0x090,0x8,0x96 0x83 0x0E 0x43 0x00 0x7C 0xBE 0xBA,0x403E,ACK
0.171005250000000,932,DATA,0x090,0x8,0x78 0x8E 0xA7 0x3C 0xDB 0xA4 0x81 0xBF,0x7DED,ACK
0.171120375000000,933,DATA,0x118,0x8,0x18 0x00 0x81 0x00 0x0F 0x01 0x66 0xCC,0x366D,ACK
0.171239750000000,934,DATA,0x090,0x8,0xE8 0xE2 0x6F 0xB9 0xED 0x6C 0x92 0x3C,0x52A9,ACK
0.171352875000000,935,DATA,0x090,0x8,0x92 0x8E 0x0E 0x3C 0x88 0x84 0x74 0x43,0x4E60,ACK
0.171467125000000,936,DATA,0x090,0x8,0x00 0x00 0x00 0x00 0x00 0x00 0x00 0x00,0x12C7,ACK
0.171592375000000,937,DATA,0x118,0x2,0x66 0xCC,0x41CF,ACK
0.171657625000000,938,DATA,0x090,0x8,0x00 0x00 0x00 0x00 0x00 0x00 0x00 0x00,0x12C7,ACK
0.171782750000000,939,DATA,0x090,0x8,0x00 0x00 0x00 0x00 0x00 0x00 0x00 0x00,0x12C7,ACK
0.171908000000000,940,DATA,0x090,0x8,0x00 0x00 0x00 0x00 0x00 0x00 0x00 0x00,0x12C7,ACK
0.172033250000000,941,DATA,0x7F8,0x8,0x0A 0xFA 0x61 0x5F 0x0E 0x01 0x09 0x00,0x3419,ACK
0.172153500000000,942,DATA,0x090,0x8,0x00 0x00 0x00 0x00 0x00 0x00 0x00 0x00,0x12C7,ACK
0.172278750000000,943,DATA,0x090,0x8,0x00 0x00 0x00 0x00 0x00 0x00 0x00 0x00,0x12C7,ACK
0.172404000000000,944,DATA,0x090,0x8,0x00 0x00 0x00 0x00 0xD5 0x00 0x9B 0x01,0x029B,ACK
0.172526125000000,945,DATA,0x7F8,0x8,0x82 0x1B 0x26 0x10 0x29 0x10 0x29 0x10,0x607A,ACK
0.172643375000000,946,DATA,0x090,0x8,0x7E 0x04 0x33 0x00 0x33 0x00 0x25 0x00,0x0A64,ACK
0.172763625000000,947,DATA,0x090,0x8,0x08 0x00 0x00 0x00 0x00 0x00 0x9A 0x00,0x0C56,ACK
0.172886875000000,948,DATA,0x090,0x8,0x66 0xCC 0x66 0xCC 0x55 0xAA 0x55 0xAA,0x03E5,ACK
0.173001125000000,949,DATA,0x7F8,0x8,0xC6 0xFE 0x00 0x00 0x00 0x00 0x00 0x00,0x351D,ACK
0.173125375000000,950,DATA,0x090,0x8,0x01 0x10 0x0E 0x00 0x10 0x00 0x00 0x00,0x5427,ACK
0.173247500000000,951,DATA,0x090,0x8,0x3E 0x00 0x00 0x00 0x28 0x00 0x00 0x00,0x6E4A,ACK
0.173371750000000,952,DATA,0x090,0x6,0x98 0x03 0x66 0xCC 0x66 0xCC,0x03C7,ACK
0.173470000000000,953,DATA,0x7F8,0x7,0x00 0x00 0x00 0x66 0xCC 0x66 0xCC,0x201B,ACK
0.173581250000000,954,DATA,0x090,0x8,0x55 0xAA 0x55 0xAA 0x01 0x10 0x0E 0x00,0x677F,ACK
0.173697500000000,955,DATA,0x090,0x8,0x0A 0x00 0x00 0x00 0x33 0x00 0x00 0x00,0x16AF,ACK
0.173820750000000,956,DATA,0x090,0x8,0x26 0x00 0x00 0x00 0x99 0x03 0x66 0xCC,0x0DE5,ACK
0.173950000000000,957,DATA,0x090,0x2,0x66 0xCC,0x1021,ACK
0.174015250000000,958,DATA,0x108,0x8,0x55 0xAA 0x55 0xAA 0x09 0x10 0xB8 0x00,0x5AD4,ACK
0.174130500000000,959,DATA,0x108,0x8,0x44 0x4A 0x49 0x01 0x18 0x42 0x18 0x42,0x2D17,ACK
0.174252625000000,960,DATA,0x108,0x8,0x18 0x42 0x18 0x42 0x00 0x00 0x00 0x00,0x6D74,ACK
0.174371875000000,961,DATA,0x108,0x8,0x00 0x00 0x64 0x00 0x00 0x00 0x00 0x00,0x2E47,ACK
0.174496125000000,962,DATA,0x108,0x8,0x17 0xFC 0xE9 0x03 0xE9 0x03 0x00 0x00,0x73CC,ACK
0.174625375000000,963,DATA,0x108,0x8,0xEB 0x01 0xE9 0x03 0x17 0xFC 0x17 0xFC,0x2B37,ACK
0.174742625000000,964,DATA,0x108,0x8,0xE9 0x03 0xE9 0x03 0x00 0x00 0x00 0x00,0x4FEE,ACK
0.174864875000000,965,DATA,0x108,0x8,0xF0 0x04 0x00 0x00 0x00 0x00 0x29 0x02,0x43E3,ACK
0.174994000000000,966,DATA,0x090,0x8,0x55 0xAA 0x55 0xAA 0x01 0x10 0x0E 0x00,0x677F,ACK
0.175110250000000,967,DATA,0x090,0x8,0x06 0x00 0x00 0x00 0x2F 0x00 0x00 0x00,0x0D19,ACK
0.175233500000000,968,DATA,0x090,0x8,0x26 0x00 0x00 0x00 0x9A 0x03 0x66 0xCC,0x2EED,ACK
0.175358750000000,969,DATA,0x090,0x2,0x66 0xCC,0x1021,ACK
0.175424000000000,970,DATA,0x108,0x8,0x00 0x00 0x00 0x00 0x00 0x00 0xF3 0x8F,0x1ECC,ACK
0.175546250000000,971,DATA,0x108,0x8,0x00 0x00 0x00 0x00 0x00 0x00 0x00 0x00,0x6C70,ACK
0.175680375000000,972,DATA,0x108,0x8,0x00 0x00 0x00 0x00 0x00 0x00 0x00 0x00,0x6C70,ACK
0.175805625000000,973,DATA,0x108,0x8,0x00 0x00 0x00 0x00 0x4C 0x00 0x00 0x00,0x3C33,ACK
0.175929875000000,974,DATA,0x108,0x8,0x00 0x00 0x00 0x00 0x00 0x00 0x00 0x80,0x4E63,ACK
0.176063125000000,975,DATA,0x108,0x8,0x00 0x40 0x0D 0xC4 0x64 0x00 0x00 0x00,0x5931,ACK
0.176184375000000,976,DATA,0x108,0x8,0x00 0x00 0x00 0x00 0x00 0x00 0x00 0x00,0x6C70,ACK
0.176309625000000,977,DATA,0x108,0x8,0x00 0x00 0x00 0x00 0x00 0x00 0x00 0x00,0x6C70,ACK
0.176443875000000,978,DATA,0x108,0x8,0x00 0x00 0x00 0x00 0x00 0x00 0x00 0x00,0x6C70,ACK
0.176569000000000,979,DATA,0x108,0x8,0x00 0x00 0x00 0x00 0x00 0x00 0x00 0x00,0x6C70,ACK
0.176694250000000,980,DATA,0x108,0x8,0xB5 0x30 0x88 0x84 0x74 0x43 0xB0 0x57,0x6DB7,ACK
0.176815500000000,981,DATA,0x090,0x8,0x55 0xAA 0x55 0xAA 0x01 0x10 0x0E 0x00,0x677F,ACK
0.176931750000000,982,DATA,0x090,0x8,0xFE 0xFF 0xFF 0xFF 0x30 0x00 0x00 0x00,0x162A,ACK
0.177055000000000,983,DATA,0x090,0x8,0x26 0x00 0x00 0x00 0x9B 0x03 0x66 0xCC,0x3015,ACK
0.177181250000000,984,DATA,0x090,0x2,0x66 0xCC,0x1021,ACK
0.177246375000000,985,DATA,0x108,0x8,0x75 0x43 0x00 0x00 0x00 0x00 0x00 0x00,0x149B,ACK
0.177368625000000,986,DATA,0x108,0x8,0x00 0x00 0x00 0x00 0x00 0x00 0x00 0x00,0x6C70,ACK
0.177502875000000,987,DATA,0x108,0x8,0x00 0x00 0x00 0x00 0xF0 0xBF 0xFF 0xFF,0x5C27,ACK
0.177628125000000,988,DATA,0x108,0x8,0xFF 0xFF 0x00 0x00 0x00 0x00 0x00 0x00,0x5895,ACK
0.177752375000000,989,DATA,0x108,0x8,0x00 0x00 0x00 0x0A 0x78 0x78 0x00 0x00,0x38EE,ACK
0.177884625000000,990,DATA,0x108,0x4,0x66 0xCC 0x66 0xCC,0x680F,ACK
0.178141875000000,991,DATA,0x090,0x8,0x55 0xAA 0x55 0xAA 0x01 0x10 0x0E 0x00,0x677F,ACK
0.178258125000000,992,DATA,0x090,0x8,0xFA 0xFF 0xFF 0xFF 0x33 0x00 0x00 0x00,0x2749,ACK
0.178380375000000,993,DATA,0x090,0x6,0x26 0x00 0x00 0x00 0x9C 0x03,0x4746,ACK
0.178493500000000,994,DATA,0x090,0x4,0x66 0xCC 0x66 0xCC,0x5148,ACK
0.179809125000000,995,DATA,0x090,0x8,0x55 0xAA 0x55 0xAA 0x01 0x10 0x0E 0x00,0x677F,ACK
0.179925250000000,996,DATA,0x090,0x8,0xF7 0xFF 0xFF 0xFF 0x36 0x00 0x00 0x00,0x23DC,ACK
0.180047500000000,997,DATA,0x090,0x6,0x25 0x00 0x00 0x00 0x9D 0x03,0x2114,ACK
0.180163750000000,998,DATA,0x090,0x4,0x66 0xCC 0x66 0xCC,0x5148,ACK
0.180401000000000,999,DATA,0x090,0x8,0x55 0xAA 0x55 0xAA 0x02 0x10 0x78 0x00,0x113D,ACK
0.180518250000000,1000,DATA,0x090,0x8,0x18 0x10 0xD9 0x5C 0xEF 0x2F 0xC3 0x3F,0x5A2A,ACK
0.180634500000000,1001,DATA,0x090,0x8,0x2F 0xF5 0xA3 0x01 0xA4 0x0A 0xED 0x3F,0x194C,ACK
0.180758750000000,1002,DATA,0x090,0x8,0x96 0x83 0x0E 0x43 0xE0 0x61 0x0B 0xBA,0x1573,ACK
0.180874000000000,1003,DATA,0x090,0x8,0xEC 0x9B 0xAF 0x3C 0x71 0x75 0x81 0xBF,0x0DDD,ACK
0.180988125000000,1004,DATA,0x090,0x8,0x43 0x1E 0xA2 0x3A 0x97 0x18 0x54 0x3C,0x2A93,ACK
0.181107375000000,1005,DATA,0x090,0x8,0xFF 0xB0 0xED 0x3B 0x41 0x78 0x74 0x43,0x4BC0,ACK
0.181222625000000,1006,DATA,0x090,0x8,0x00 0x00 0x00 0x00 0x00 0x00 0x00 0x00,0x12C7,ACK
0.181347875000000,1007,DATA,0x090,0x8,0x00 0x00 0x00 0x00 0x00 0x00 0x00 0x00,0x12C7,ACK
0.181480125000000,1008,DATA,0x090,0x8,0x00 0x00 0x00 0x00 0x00 0x00 0x00 0x00,0x12C7,ACK
0.181605375000000,1009,DATA,0x090,0x8,0x00 0x00 0x00 0x00 0x00 0x00 0x00 0x00,0x12C7,ACK
0.181730500000000,1010,DATA,0x090,0x8,0x00 0x00 0x00 0x00 0x00 0x00 0x00 0x00,0x12C7,ACK
0.181862750000000,1011,DATA,0x090,0x8,0x00 0x00 0x00 0x00 0x00 0x00 0x00 0x00,0x12C7,ACK
0.181988000000000,1012,DATA,0x090,0x8,0x00 0x00 0x00 0x00 0xD5 0x00 0x97 0x01,0x2557,ACK
0.182109250000000,1013,DATA,0x090,0x8,0x7E 0x04 0x33 0x00 0x33 0x00 0x25 0x00,0x0A64,ACK
0.182236500000000,1014,DATA,0x090,0x8,0x08 0x00 0x00 0x00 0x00 0x00 0x9B 0x00,0x4870,ACK
0.182358750000000,1015,DATA,0x090,0x8,0x66 0xCC 0x66 0xCC 0x55 0xAA 0x55 0xAA,0x03E5,ACK
0.182473000000000,1016,DATA,0x090,0x8,0x01 0x10 0x0E 0x00 0xF3 0xFF 0xFF 0xFF,0x2474,ACK
0.182601125000000,1017,DATA,0x090,0x8,0x3B 0x00 0x00 0x00 0x24 0x00 0x00 0x00,0x62A8,ACK
0.182724375000000,1018,DATA,0x090,0x6,0x9E 0x03 0x66 0xCC 0x66 0xCC,0x472F,ACK
0.183119750000000,1019,DATA,0x090,0x8,0x55 0xAA 0x55 0xAA 0x01 0x10 0x0E 0x00,0x677F,ACK
0.183236000000000,1020,DATA,0x090,0x8,0xF4 0xFF 0xFF 0xFF 0x3C 0x00 0x00 0x00,0x10BC,ACK
0.183357125000000,1021,DATA,0x090,0x6,0x24 0x00 0x00 0x00 0x9F 0x03,0x72ED,ACK
0.183468375000000,1022,DATA,0x090,0x4,0x66 0xCC 0x66 0xCC,0x5148,ACK
0.184823000000000,1023,DATA,0x090,0x8,0x55 0xAA 0x55 0xAA 0x01 0x10 0x0E 0x00,0x677F,ACK
0.184939125000000,1024,DATA,0x090,0x8,0xF6 0xFF 0xFF 0xFF 0x3D 0x00 0x00 0x00,0x65BD,ACK
0.185059375000000,1025,DATA,0x090,0x6,0x25 0x00 0x00 0x00 0xA0 0x03,0x1857,ACK
0.185168625000000,1026,DATA,0x090,0x4,0x66 0xCC 0x66 0xCC,0x5148,ACK
0.186454125000000,1027,DATA,0x090,0x8,0x55 0xAA 0x55 0xAA 0x01 0x10 0x0E 0x00,0x677F,ACK
0.186570375000000,1028,DATA,0x090,0x8,0xFB 0xFF 0xFF 0xFF 0x41 0x00 0x00 0x00,0x3C3C,ACK
0.186697625000000,1029,DATA,0x090,0x6,0x28 0x00 0x00 0x00 0xA1 0x03,0x0E14,ACK
0.186806875000000,1030,DATA,0x090,0x4,0x66 0xCC 0x66 0xCC,0x5148,ACK
0.188121375000000,1031,DATA,0x090,0x8,0x55 0xAA 0x55 0xAA 0x01 0x10 0x0E 0x00,0x677F,ACK
0.188237625000000,1032,DATA,0x090,0x8,0xFE 0xFF 0xFF 0xFF 0x44 0x00 0x00 0x00,0x1C7F,ACK
0.188360875000000,1033,DATA,0x090,0x6,0x2B 0x00 0x00 0x00 0xA2 0x03,0x2593,ACK
0.188469000000000,1034,DATA,0x090,0x4,0x66 0xCC 0x66 0xCC,0x5148,ACK
0.189787625000000,1035,DATA,0x090,0x8,0x55 0xAA 0x55 0xAA 0x01 0x10 0x0E 0x00,0x677F,ACK
0.189903875000000,1036,DATA,0x090,0x8,0x01 0x00 0x00 0x00 0x48 0x00 0x00 0x00,0x6E54,ACK
0.190028000000000,1037,DATA,0x090,0x6,0x32 0x00 0x00 0x00 0xA3 0x03,0x2292,ACK
0.190166250000000,1038,DATA,0x090,0x4,0x66 0xCC 0x66 0xCC,0x5148,ACK
0.190395500000000,1039,DATA,0x090,0x8,0x55 0xAA 0x55 0xAA 0x02 0x10 0x78 0x00,0x113D,ACK
0.190512750000000,1040,DATA,0x090,0x8,0x18 0x10 0xD9 0x5C 0xEF 0x2F 0xC3 0x3F,0x5A2A,ACK
0.190629000000000,1041,DATA,0x090,0x8,0x2F 0xF5 0xA3 0x01 0xA4 0x0A 0xED 0x3F,0x194C,ACK
0.190753250000000,1042,DATA,0x090,0x8,0x96 0x83 0x0E 0x43 0xC0 0x95 0x1B 0x3A,0x2EA6,ACK
0.190867500000000,1043,DATA,0x090,0x8,0x32 0x24 0xBB 0x3C 0x8E 0x66 0x81 0xBF,0x2231,ACK
0.190982750000000,1044,DATA,0x090,0x8,0xA8 0x8A 0x47 0xB9 0x7F 0x0E 0x2B 0x3C,0x7375,ACK
0.191102875000000,1045,DATA,0x090,0x8,0xB9 0x72 0xE5 0x3B 0x09 0x80 0x74 0x43,0x695F,ACK
0.191217125000000,1046,DATA,0x090,0x8,0x00 0x00 0x00 0x00 0x00 0x00 0x00 0x00,0x12C7,ACK
0.191342375000000,1047,DATA,0x090,0x8,0x00 0x00 0x00 0x00 0x00 0x00 0x00 0x00,0x12C7,ACK
0.191474625000000,1048,DATA,0x090,0x8,0x00 0x00 0x00 0x00 0x00 0x00 0x00 0x00,0x12C7,ACK
0.191599875000000,1049,DATA,0x090,0x8,0x00 0x00 0x00 0x00 0x00 0x00 0x00 0x00,0x12C7,ACK
0.191725125000000,1050,DATA,0x090,0x8,0x00 0x00 0x00 0x00 0x00 0x00 0x00 0x00,0x12C7,ACK
0.191857250000000,1051,DATA,0x090,0x8,0x00 0x00 0x00 0x00 0x00 0x00 0x00 0x00,0x12C7,ACK
0.191982500000000,1052,DATA,0x090,0x8,0x00 0x00 0x00 0x00 0xD5 0x00 0x97 0x01,0x2557,ACK
0.192103750000000,1053,DATA,0x090,0x8,0x7E 0x04 0x33 0x00 0x33 0x00 0x25 0x00,0x0A64,ACK
0.192231000000000,1054,DATA,0x090,0x8,0x08 0x00 0x00 0x00 0x00 0x00 0x9C 0x00,0x1FB0,ACK
0.192355250000000,1055,DATA,0x090,0x8,0x66 0xCC 0x66 0xCC 0x55 0xAA 0x55 0xAA,0x03E5,ACK
0.192469500000000,1056,DATA,0x090,0x8,0x01 0x10 0x0E 0x00 0x02 0x00 0x00 0x00,0x0D65,ACK
0.192599750000000,1057,DATA,0x090,0x8,0x48 0x00 0x00 0x00 0x35 0x00 0x00 0x00,0x535D,ACK
0.192720875000000,1058,DATA,0x090,0x6,0xA4 0x03 0x66 0xCC 0x66 0xCC,0x3001,ACK
0.192837125000000,1059,DATA,0x108,0x8,0x55 0xAA 0x55 0xAA 0x09 0x10 0xB8 0x00,0x5AD4,ACK
0.193147375000000,1060,DATA,0x090,0x8,0x55 0xAA 0x55 0xAA 0x01 0x10 0x0E 0x00,0x677F,ACK
0.193263625000000,1061,DATA,0x090,0x8,0x02 0x00 0x00 0x00 0x46 0x00 0x00 0x00,0x26D4,ACK
0.193386875000000,1062,DATA,0x090,0x6,0x37 0x00 0x00 0x00 0xA5 0x03,0x57E8,ACK
0.193497125000000,1063,DATA,0x090,0x4,0x66 0xCC 0x66 0xCC,0x5148,ACK
0.193577375000000,1064,DATA,0x108,0x8,0x44 0x4A 0x49 0x01 0x18 0x42 0x18 0x42,0x2D17,ACK
0.193690625000000,1065,DATA,0x108,0x8,0x18 0x42 0x18 0x42 0x00 0x00 0x00 0x00,0x6D74,ACK
0.193818750000000,1066,DATA,0x108,0x8,0x00 0x00 0x64 0x00 0x00 0x00 0x00 0x00,0x2E47,ACK
0.193943000000000,1067,DATA,0x108,0x8,0x17 0xFC 0xE9 0x03 0xE9 0x03 0x00 0x00,0x73CC,ACK
0.194063250000000,1068,DATA,0x108,0x8,0xEB 0x01 0xE9 0x03 0x17 0xFC 0x17 0xFC,0x2B37,ACK
0.194189500000000,1069,DATA,0x108,0x8,0xE9 0x03 0xE9 0x03 0x00 0x00 0x00 0x00,0x4FEE,ACK
0.194311750000000,1070,DATA,0x108,0x8,0xF0 0x04 0x00 0x00 0x00 0x00 0x28 0x02,0x07C5,ACK
0.194435000000000,1071,DATA,0x108,0x8,0x00 0x00 0x00 0x00 0x00 0x00 0xF3 0x8F,0x1ECC,ACK
0.194566250000000,1072,DATA,0x108,0x8,0x00 0x00 0x00 0x00 0x00 0x00 0x00 0x00,0x6C70,ACK
0.194691375000000,1073,DATA,0x108,0x8,0x00 0x00 0x00 0x00 0x00 0x00 0x00 0x00,0x6C70,ACK
0.194816625000000,1074,DATA,0x108,0x8,0x00 0x00 0x00 0x00 0x4D 0x00 0x00 0x00,0x22CB,ACK
0.194947875000000,1075,DATA,0x090,0x8,0x55 0xAA 0x55 0xAA 0x01 0x10 0x0E 0x00,0x677F,ACK
0.195064125000000,1076,DATA,0x090,0x8,0x03 0x00 0x00 0x00 0x43 0x00 0x00 0x00,0x14FC,ACK
0.195188375000000,1077,DATA,0x090,0x8,0x3C 0x00 0x00 0x00 0xA6 0x03 0x66 0xCC,0x0998,ACK
0.195315625000000,1078,DATA,0x090,0x2,0x66 0xCC,0x1021,ACK
0.195380750000000,1079,DATA,0x108,0x8,0x00 0x00 0x00 0x00 0x00 0x00 0x00 0x80,0x4E63,ACK
0.195505000000000,1080,DATA,0x108,0x8,0x00 0x40 0x0D 0xC4 0x66 0x00 0x00 0x00,0x64C1,ACK
0.195636250000000,1081,DATA,0x108,0x8,0x00 0x00 0x00 0x00 0x00 0x00 0x00 0x00,0x6C70,ACK
0.195761500000000,1082,DATA,0x108,0x8,0x00 0x00 0x00 0x00 0x0A 0xFA 0x00 0x00,0x7D0B,ACK
0.195885750000000,1083,DATA,0x108,0x8,0x5F 0x00 0x00 0x00 0x00 0x00 0x00 0x00,0x47B3,ACK
0.196019000000000,1084,DATA,0x108,0x8,0x6A 0x30 0x26 0x10 0x29 0x10 0x29 0x10,0x2D32,ACK
0.196135250000000,1085,DATA,0x108,0x8,0xB4 0x30 0x09 0x80 0x74 0x43 0xB0 0x57,0x69CD,ACK
0.196251375000000,1086,DATA,0x108,0x8,0x75 0x43 0x00 0x00 0x00 0x00 0x00 0x00,0x149B,ACK
0.196382625000000,1087,DATA,0x108,0x8,0x00 0x00 0x00 0x00 0x00 0x00 0x00 0x00,0x6C70,ACK
0.196507875000000,1088,DATA,0x108,0x8,0x00 0x00 0x00 0x00 0xF0 0xBF 0xFF 0xFF,0x5C27,ACK
0.196633125000000,1089,DATA,0x108,0x8,0xFF 0xFF 0x00 0x00 0x00 0x00 0x00 0x00,0x5895,ACK
0.196764375000000,1090,DATA,0x090,0x8,0x55 0xAA 0x55 0xAA 0x01 0x10 0x0E 0x00,0x677F,ACK
0.196880625000000,1091,DATA,0x090,0x8,0x02 0x00 0x00 0x00 0x43 0x00 0x00 0x00,0x43CC,ACK
0.197002750000000,1092,DATA,0x090,0x8,0x3D 0x00 0x00 0x00 0xA7 0x03 0x66 0xCC,0x4050,ACK
0.197129000000000,1093,DATA,0x090,0x2,0x66 0xCC,0x1021,ACK
0.197194250000000,1094,DATA,0x108,0x8,0x00 0x00 0x00 0x0A 0x78 0x78 0x00 0x00,0x38EE,ACK
0.197316500000000,1095,DATA,0x108,0x4,0x66 0xCC 0x66 0xCC,0x680F,ACK
0.198161875000000,1096,DATA,0x090,0x8,0x55 0xAA 0x55 0xAA 0x01 0x10 0x0E 0x00,0x677F,ACK
0.198278125000000,1097,DATA,0x090,0x8,0x00 0x00 0x00 0x00 0x47 0x00 0x00 0x00,0x53D5,ACK
0.198401375000000,1098,DATA,0x090,0x6,0x40 0x00 0x00 0x00 0xA8 0x03,0x3DB3,ACK
0.198511625000000,1099,DATA,0x090,0x4,0x66 0xCC 0x66 0xCC,0x5148,ACK
0.199792125000000,1100,DATA,0x090,0x8,0x55 0xAA 0x55 0xAA 0x01 0x10 0x0E 0x00,0x677F,ACK
0.199908375000000,1101,DATA,0x090,0x8,0xFF 0xFF 0xFF 0xFF 0x4A 0x00 0x00 0x00,0x3F06,ACK
0.200033625000000,1102,DATA,0x090,0x6,0x41 0x00 0x00 0x00 0xA9 0x03,0x67B9,ACK
0.200175750000000,1103,DATA,0x090,0x4,0x66 0xCC 0x66 0xCC,0x5148,ACK
0.200397125000000,1104,DATA,0x090,0x8,0x55 0xAA 0x55 0xAA 0x02 0x10 0x78 0x00,0x113D,ACK
0.200514250000000,1105,DATA,0x090,0x8,0x18 0x10 0xD9 0x5C 0xEF 0x2F 0xC3 0x3F,0x5A2A,ACK
0.200630500000000,1106,DATA,0x090,0x8,0x2F 0xF5 0xA3 0x01 0xA4 0x0A 0xED 0x3F,0x194C,ACK
0.200754750000000,1107,DATA,0x090,0x8,0x96 0x83 0x0E 0x43 0x20 0xD0 0x55 0x39,0x49B3,ACK
0.200870000000000,1108,DATA,0x090,0x8,0x24 0xED 0xB2 0x3C 0x6F 0xB0 0x81 0xBF,0x2DB3,ACK
0.200986250000000,1109,DATA,0x090,0x8,0x7A 0xB9 0x0D 0xBA 0x7F 0xE8 0x3E 0x3C,0x7C4D,ACK
0.201110500000000,1110,DATA,0x090,0x8,0xEE 0x29 0x12 0x3C 0x95 0x8A 0x74 0x43,0x08EF,ACK
0.201222625000000,1111,DATA,0x090,0x8,0x00 0x00 0x00 0x00 0x00 0x00 0x00 0x00,0x12C7,ACK
0.201347875000000,1112,DATA,0x090,0x8,0x00 0x00 0x00 0x00 0x00 0x00 0x00 0x00,0x12C7,ACK
0.201480125000000,1113,DATA,0x090,0x8,0x00 0x00 0x00 0x00 0x00 0x00 0x00 0x00,0x12C7,ACK
0.201605375000000,1114,DATA,0x090,0x8,0x00 0x00 0x00 0x00 0x00 0x00 0x00 0x00,0x12C7,ACK
0.201730625000000,1115,DATA,0x090,0x8,0x00 0x00 0x00 0x00 0x00 0x00 0x00 0x00,0x12C7,ACK
0.201862875000000,1116,DATA,0x090,0x8,0x00 0x00 0x00 0x00 0x00 0x00 0x00 0x00,0x12C7,ACK
0.201988125000000,1117,DATA,0x090,0x8,0x00 0x00 0x00 0x00 0xD5 0x00 0x97 0x01,0x2557,ACK
0.202109250000000,1118,DATA,0x090,0x8,0x7E 0x04 0x33 0x00 0x33 0x00 0x25 0x00,0x0A64,ACK
0.202236500000000,1119,DATA,0x090,0x8,0x08 0x00 0x00 0x00 0x00 0x00 0x9D 0x00,0x5B96,ACK
0.202358750000000,1120,DATA,0x090,0x8,0x66 0xCC 0x66 0xCC 0x55 0xAA 0x55 0xAA,0x03E5,ACK
0.202473000000000,1121,DATA,0x090,0x8,0x01 0x10 0x0E 0x00 0xFD 0xFF 0xFF 0xFF,0x503D,ACK
0.202603250000000,1122,DATA,0x090,0x8,0x4E 0x00 0x00 0x00 0x45 0x00 0x00 0x00,0x5B7A,ACK
0.202724500000000,1123,DATA,0x090,0x6,0xAA 0x03 0x66 0xCC 0x66 0xCC,0x4010,ACK
0.203139750000000,1124,DATA,0x090,0x8,0x55 0xAA 0x55 0xAA 0x01 0x10 0x0E 0x00,0x677F,ACK
0.203256000000000,1125,DATA,0x090,0x8,0xF8 0xFF 0xFF 0xFF 0x51 0x00 0x00 0x00,0x6447,ACK
0.203377250000000,1126,DATA,0x090,0x6,0x44 0x00 0x00 0x00 0xAB 0x03,0x4CF0,ACK
0.203486500000000,1127,DATA,0x090,0x4,0x66 0xCC 0x66 0xCC,0x5148,ACK
0.204793000000000,1128,DATA,0x090,0x8,0x55 0xAA 0x55 0xAA 0x01 0x10 0x0E 0x00,0x677F,ACK
0.204909250000000,1129,DATA,0x090,0x8,0xF6 0xFF 0xFF 0xFF 0x51 0x00 0x00 0x00,0x3903,ACK
0.205031375000000,1130,DATA,0x090,0x6,0x43 0x00 0x00 0x00 0xAC 0x03,0x41F4,ACK
0.205170625000000,1131,DATA,0x090,0x4,0x66 0xCC 0x66 0xCC,0x5148,ACK
0.206461250000000,1132,DATA,0x090,0x8,0x55 0xAA 0x55 0xAA 0x01 0x10 0x0E 0x00,0x677F,ACK
0.206577375000000,1133,DATA,0x090,0x8,0xF5 0xFF 0xFF 0xFF 0x52 0x00 0x00 0x00,0x26C2,ACK
0.206699625000000,1134,DATA,0x090,0x6,0x3C 0x00 0x00 0x00 0xAD 0x03,0x389A,ACK
0.206808875000000,1135,DATA,0x090,0x4,0x66 0xCC 0x66 0xCC,0x5148,ACK
0.208142375000000,1136,DATA,0x090,0x8,0x55 0xAA 0x55 0xAA 0x01 0x10 0x0E 0x00,0x677F,ACK
0.208258625000000,1137,DATA,0x090,0x8,0xF6 0xFF 0xFF 0xFF 0x52 0x00 0x00 0x00,0x1A0B,ACK
0.208380875000000,1138,DATA,0x090,0x6,0x38 0x00 0x00 0x00 0xAE 0x03,0x49D9,ACK
0.208490125000000,1139,DATA,0x090,0x4,0x66 0xCC 0x66 0xCC,0x5148,ACK
0.209809625000000,1140,DATA,0x090,0x8,0x55 0xAA 0x55 0xAA 0x01 0x10 0x0E 0x00,0x677F,ACK
0.209925875000000,1141,DATA,0x090,0x8,0xF8 0xFF 0xFF 0xFF 0x53 0x00 0x00 0x00,0x59B7,ACK
0.210047125000000,1142,DATA,0x090,0x6,0x36 0x00 0x00 0x00 0xAF 0x03,0x7DEE,ACK
0.210150250000000,1143,DATA,0x118,0x8,0x55 0xAA 0x55 0xAA 0x04 0x10 0x06 0x00,0x7106,ACK
0.210267500000000,1144,DATA,0x090,0x4,0x66 0xCC 0x66 0xCC,0x5148,ACK
0.210347750000000,1145,DATA,0x118,0x6,0x17 0x00 0x83 0x00 0x0E 0x01,0x54D5,ACK
0.210449000000000,1146,DATA,0x090,0x8,0x55 0xAA 0x55 0xAA 0x02 0x10 0x78 0x00,0x113D,ACK
0.210566250000000,1147,DATA,0x090,0x8,0x18 0x10 0xD9 0x5C 0xEF 0x2F 0xC3 0x3F,0x5A2A,ACK
0.210682375000000,1148,DATA,0x090,0x8,0x2F 0xF5 0xA3 0x01 0xA4 0x0A 0xED 0x3F,0x194C,ACK
0.210799625000000,1149,DATA,0x118,0x4,0x66 0xCC 0x66 0xCC,0x5CF6,ACK
0.210879875000000,1150,DATA,0x090,0x8,0x96 0x83 0x0E 0x43 0xE8 0x42 0x41 0x3A,0x7B6C,ACK
0.210995125000000,1151,DATA,0x090,0x8,0x69 0x8A 0xA2 0x3C 0x7F 0xCB 0x81 0xBF,0x5A09,ACK
0.211111375000000,1152,DATA,0x090,0x8,0x4A 0x97 0x11 0xBA 0x0B 0xF6 0x5B 0x3C,0x69A3,ACK
0.211232625000000,1153,DATA,0x090,0x8,0xFC 0x37 0x3A 0x3C 0x95 0x8A 0x74 0x43,0x16B5,ACK
0.211345875000000,1154,DATA,0x090,0x8,0x00 0x00 0x00 0x00 0x00 0x00 0x00 0x00,0x12C7,ACK
0.211471000000000,1155,DATA,0x090,0x8,0x00 0x00 0x00 0x00 0x00 0x00 0x00 0x00,0x12C7,ACK
0.211603250000000,1156,DATA,0x090,0x8,0x00 0x00 0x00 0x00 0x00 0x00 0x00 0x00,0x12C7,ACK
0.211728500000000,1157,DATA,0x090,0x8,0x00 0x00 0x00 0x00 0x00 0x00 0x00 0x00,0x12C7,ACK
0.211853750000000,1158,DATA,0x090,0x8,0x00 0x00 0x00 0x00 0x00 0x00 0x00 0x00,0x12C7,ACK
0.211986000000000,1159,DATA,0x090,0x8,0x00 0x00 0x00 0x00 0x00 0x00 0x00 0x00,0x12C7,ACK
0.212111250000000,1160,DATA,0x090,0x8,0x00 0x00 0x00 0x00 0xD5 0x00 0x97 0x01,0x2557,ACK
0.212232500000000,1161,DATA,0x090,0x8,0x7E 0x04 0x33 0x00 0x33 0x00 0x25 0x00,0x0A64,ACK
0.212359625000000,1162,DATA,0x090,0x8,0x08 0x00 0x00 0x00 0x00 0x00 0x9E 0x00,0x5265,ACK
0.212481875000000,1163,DATA,0x090,0x8,0x66 0xCC 0x66 0xCC 0x55 0xAA 0x55 0xAA,0x03E5,ACK
